  can0  0E094000   [6]  00 18 00 00 00 01
  can0  0E094000   [6]  00 1A 00 00 00 01
  can0  0E094003   [2]  00 1A
  can0  0E09400A   [2]  00 1A
  can0  06314003   [8]  00 10 70 00 00 00 00 00
  can0  0621400A   [2]  00 00
  can0  02214000   [6]  00 00 00 00 00 00
  can0  04394100   [8]  00 00 00 00 F0 00 60 00
  can0  04394000   [4]  00 00 00 C3
  can0  06214000   [8]  00 04 18 00 00 00 0F 00
  can0  03029000   [8]  00 00 00 00 00 00 00 00
  can0  03029100   [8]  00 00 00 00 00 00 00 00
  can0  06284000   [8]  00 00 00 00 00 00 00 00
  can0  06254000   [8]  00 FF FF 00 FF FF FF 00
  can0  04394100   [8]  00 00 00 00 F0 00 60 00
  can0  02294000   [8]  00 00 00 00 00 00 00 00
  can0  04394000   [4]  00 00 00 C3
  can0  03029000   [8]  00 00 00 00 00 00 00 00
  can0  03029100   [8]  00 00 00 00 00 00 00 00
  can0  06314000   [8]  00 00 00 00 00 00 00 00
  can0  062BBF00   [8]  00 00 00 00 00 00 00 00
  can0  04394100   [8]  00 00 00 00 F0 00 60 00
  can0  04394000   [4]  00 00 00 C3
  can0  02214000   [6]  00 00 00 00 00 00
  can0  06214000   [8]  00 04 18 00 00 00 0F 00
  can0  03029000   [8]  00 00 00 00 00 00 00 00
  can0  0C214003   [6]  21 00 18 02 20 18
  can0  03029100   [8]  00 00 00 00 00 00 00 00
  can0  06264000   [8]  00 00 00 00 00 00 00 80
  can0  06214000   [8]  00 04 18 00 00 00 0F 00
  can0  04394100   [8]  00 00 00 00 F0 00 60 00
  can0  063D4000   [8]  69 50 00 00 80 FE 00 00
  can0  04394000   [4]  00 00 00 C3
  can0  03029000   [8]  00 00 00 00 00 00 00 00
  can0  06254000   [8]  00 FF FF 00 FF FF FF 00
  can0  0C054003   [8]  04 70 04 87 89 9A 00 00
  can0  03029100   [8]  00 00 00 00 00 00 00 00
  can0  04394100   [8]  00 00 00 00 F0 00 60 00
  can0  06314000   [8]  00 00 00 00 00 00 00 00
  can0  04394000   [4]  00 00 00 C3
  can0  03029000   [8]  00 00 00 00 00 00 00 00
  can0  0621400A   [2]  00 00
  can0  03029100   [8]  00 00 00 00 00 00 00 00
  can0  06314003   [8]  00 10 70 00 00 00 00 00
  can0  02214000   [6]  00 00 00 00 00 00
  can0  04394100   [8]  00 00 00 00 F0 00 60 00
  can0  04394000   [4]  00 00 00 C3
  can0  06214000   [8]  00 04 18 00 00 00 0F 00
  can0  03029000   [8]  00 00 00 00 00 00 00 00
  can0  0A3D4003   [8]  21 A3 50 6B 10 07 08 E0
  can0  03029100   [8]  00 00 00 00 00 00 00 00
  can0  06284000   [8]  00 00 00 00 00 00 00 00
  can0  06254000   [8]  00 FF FF 00 FF FF FF 00
  can0  04394100   [8]  00 00 00 00 F0 00 60 00
  can0  04394000   [4]  00 00 00 C3
  can0  03029000   [8]  00 00 00 00 00 00 00 00
  can0  0A354003   [8]  21 A3 50 6B 10 07 08 E0
  can0  03029100   [8]  00 00 00 00 00 00 00 00
  can0  06314000   [8]  00 00 00 00 00 00 00 00
  can0  062BBF00   [8]  00 00 00 00 00 00 00 00
  can0  04394100   [8]  00 00 00 00 F0 00 60 00
  can0  04394000   [4]  00 00 00 C3
  can0  02214000   [6]  00 00 00 00 00 00
  can0  03029000   [8]  00 00 00 00 00 00 00 00
  can0  0A194003   [8]  9A C5 40 00 00 00 00 00
  can0  03029100   [8]  00 00 00 00 00 00 00 00
  can0  06264000   [8]  00 00 00 00 00 00 00 80
  can0  06214000   [8]  00 04 18 00 00 00 0F 00
  can0  04394100   [8]  00 00 00 00 F0 00 60 00
  can0  063D4000   [8]  69 50 00 00 80 FE 00 00
  can0  04394000   [4]  00 00 00 C3
  can0  03029000   [8]  00 00 00 00 00 00 00 00
  can0  06254000   [8]  00 FF FF 00 FF FF FF 00
  can0  0C394003   [8]  C3 02 00 00 08 01 60 00
  can0  03029100   [8]  00 00 00 00 00 00 00 00
  can0  04394100   [8]  00 00 00 00 F0 00 60 00
  can0  06314000   [8]  00 00 00 00 00 00 00 00
  can0  04394000   [4]  00 00 00 C3
  can0  0E094000   [6]  00 1A 00 00 04 09
  can0  03029000   [8]  00 00 00 00 00 00 00 00
  can0  0E094020   [2]  00 0A
  can0  0E094003   [2]  00 1A
  can0  0E09400A   [2]  00 1A
  can0  03029100   [8]  00 00 00 00 00 00 00 00
  can0  0621400A   [2]  00 00
  can0  06314003   [8]  00 10 70 00 00 00 00 00
  can0  06314020   [4]  00 00 00 00
  can0  02214000   [6]  00 00 00 00 00 00
  can0  04394100   [8]  00 00 00 00 F0 00 60 00
  can0  04394000   [4]  00 00 00 C3
  can0  06214000   [8]  00 04 18 00 00 00 0F 00
  can0  03029000   [8]  00 00 00 00 00 00 00 00
  can0  03029100   [8]  00 00 00 00 00 00 00 00
  can0  06284000   [8]  00 00 00 00 00 00 00 00
  can0  06254000   [8]  00 FF FF 00 FF FF FF 00
  can0  04394100   [8]  00 00 00 00 F0 00 60 00
  can0  02294000   [8]  00 00 00 00 00 00 00 00
  can0  04394000   [4]  00 00 00 C3
  can0  03029000   [8]  00 00 00 00 00 00 00 00
  can0  03029100   [8]  00 00 00 00 00 00 00 00
  can0  06314000   [8]  00 00 00 00 00 00 00 00
  can0  062BBF00   [8]  00 00 00 00 00 00 00 00
  can0  04394100   [8]  00 00 00 00 F0 00 60 00
  can0  04394000   [4]  00 00 00 C3
  can0  02214000   [6]  00 00 00 00 00 00
  can0  03029000   [8]  00 00 00 00 00 00 00 00
  can0  0C214003   [6]  21 00 18 02 20 18
  can0  03029100   [8]  00 00 00 00 00 00 00 00
  can0  06264000   [8]  00 00 00 00 00 00 00 80
  can0  06214000   [8]  00 04 18 00 00 00 0F 00
  can0  04394100   [8]  00 00 00 00 F0 00 60 00
  can0  063D4000   [8]  69 50 00 00 80 FE 00 00
  can0  04394000   [4]  00 00 00 C3
  can0  03029000   [8]  00 00 00 00 00 00 00 00
  can0  06254000   [8]  00 FF FF 00 FF FF FF 00
  can0  0C054003   [8]  04 70 04 87 89 9A 00 00
  can0  03029100   [8]  00 00 00 00 00 00 00 00
  can0  04394100   [8]  00 00 00 00 F0 00 60 00
  can0  06314000   [8]  00 00 00 00 00 00 00 00
  can0  04394000   [4]  00 00 00 C3
  can0  03029000   [8]  00 00 00 00 00 00 00 00
  can0  0621400A   [2]  00 00
  can0  03029100   [8]  00 00 00 00 00 00 00 00
  can0  06314003   [8]  00 10 70 00 00 00 00 00
  can0  02214000   [6]  00 00 00 00 00 00
  can0  04394100   [8]  00 00 00 00 F0 00 60 00
  can0  04394000   [4]  00 00 00 C3
  can0  06214000   [8]  00 04 18 00 00 00 0F 00
  can0  03029000   [8]  00 00 00 00 00 00 00 00
  can0  0A3D4003   [8]  21 A3 50 6B 10 07 08 E0
  can0  03029100   [8]  00 00 00 00 00 00 00 00
  can0  06284000   [8]  00 00 00 00 00 00 00 00
  can0  06254000   [8]  00 FF FF 00 FF FF FF 00
  can0  04394100   [8]  00 00 00 00 F0 00 60 00
  can0  04394000   [4]  00 00 00 C3
  can0  03029000   [8]  00 00 00 00 00 00 00 00
  can0  0A354003   [8]  21 A3 50 6B 10 07 08 E0
  can0  03029100   [8]  00 00 00 00 00 00 00 00
  can0  06314000   [8]  00 00 00 00 00 00 00 00
  can0  062BBF00   [8]  00 00 00 00 00 00 00 00
  can0  04394100   [8]  00 00 00 00 F0 00 60 00
  can0  04394000   [4]  00 00 00 C3
  can0  02214000   [6]  00 00 00 00 00 00
  can0  03029000   [8]  00 00 00 00 00 00 00 00
  can0  0A194003   [8]  9A C5 40 00 00 00 00 00
  can0  03029100   [8]  00 00 00 00 00 00 00 00
  can0  06264000   [8]  00 00 00 00 00 00 00 80
  can0  06214000   [8]  00 04 18 00 00 00 0F 00
  can0  04394100   [8]  00 00 00 00 F0 00 60 00
  can0  063D4000   [8]  69 50 00 00 80 FE 00 00
  can0  04394000   [4]  00 00 00 C3
  can0  03029000   [8]  00 00 00 00 00 00 00 00
  can0  06254000   [8]  00 FF FF 00 FF FF FF 00
  can0  0C394003   [8]  C3 02 00 00 08 01 60 00
  can0  03029100   [8]  00 00 00 00 00 00 00 00
  can0  04394100   [8]  00 00 00 00 F0 00 60 00
  can0  06314000   [8]  00 00 00 00 00 00 00 00
  can0  04394000   [4]  00 00 00 C3
  can0  0E094000   [6]  00 1A 00 00 04 09
  can0  03029000   [8]  00 00 00 00 00 00 00 00
  can0  0E094020   [2]  00 0A
  can0  0E094003   [2]  00 1A
  can0  0E09400A   [2]  00 1A
  can0  03029100   [8]  00 00 00 00 00 00 00 00
  can0  0621400A   [2]  00 00
  can0  06314003   [8]  00 10 70 00 00 00 00 00
  can0  06314020   [4]  00 00 00 A4
  can0  02214000   [6]  00 00 00 00 00 00
  can0  04394100   [8]  00 00 00 00 F0 00 60 00
  can0  04394000   [4]  00 00 00 C3
  can0  06214000   [8]  00 04 18 00 00 00 0F 00
  can0  03029000   [8]  00 00 00 00 00 00 00 00
  can0  03029100   [8]  00 00 00 00 00 00 00 00
  can0  06284000   [8]  00 00 00 00 00 00 00 00
  can0  06254000   [8]  00 FF FF 00 FF FF FF 00
  can0  04394100   [8]  00 00 00 00 F0 00 60 00
  can0  02294000   [8]  00 00 00 00 00 00 00 00
  can0  04394000   [4]  00 00 00 C3
  can0  03029000   [8]  00 00 00 00 00 00 00 00
  can0  03029100   [8]  00 00 00 00 00 00 00 00
  can0  06314000   [8]  00 00 00 00 00 00 00 00
  can0  062BBF00   [8]  00 00 00 00 00 00 00 00
  can0  04394100   [8]  00 00 00 00 F0 00 60 00
  can0  04394000   [4]  00 00 00 C3
  can0  02214000   [6]  00 00 00 00 00 00
  can0  03029000   [8]  00 00 00 00 00 00 00 00
  can0  0C214003   [6]  21 00 18 02 20 18
  can0  03029100   [8]  00 00 00 00 00 00 00 00
  can0  06264000   [8]  00 00 00 00 00 00 00 80
  can0  06214000   [8]  00 04 18 00 00 00 0F 00
  can0  04394100   [8]  00 00 00 00 F0 00 60 00
  can0  063D4000   [8]  69 50 00 00 80 FE 00 00
  can0  04394000   [4]  00 00 00 C3
  can0  03029000   [8]  00 00 00 00 00 00 00 00
  can0  06254000   [8]  00 FF FF 00 FF FF FF 00
  can0  0C054003   [8]  04 70 04 87 89 9A 00 00
  can0  03029100   [8]  00 00 00 00 00 00 00 00
  can0  04394100   [8]  00 00 00 00 F0 00 60 00
  can0  06314000   [8]  00 00 00 00 00 00 00 00
  can0  04394000   [4]  00 00 00 C3
  can0  03029000   [8]  00 00 00 00 00 00 00 00
  can0  0621400A   [2]  00 00
  can0  03029100   [8]  00 00 00 00 00 00 00 00
  can0  06314003   [8]  00 10 70 00 00 00 00 00
  can0  02214000   [6]  00 00 00 00 00 00
  can0  04394100   [8]  00 00 00 00 F0 00 60 00
  can0  04394000   [4]  00 00 00 C3
  can0  06214000   [8]  00 04 18 00 00 00 0F 00
  can0  03029000   [8]  00 00 00 00 00 00 00 00
  can0  0A3D4003   [8]  21 A3 50 6B 10 07 08 E0
  can0  03029100   [8]  00 00 00 00 00 00 00 00
  can0  06284000   [8]  00 00 00 00 00 00 00 00
  can0  06254000   [8]  00 FF FF 00 FF FF FF 00
  can0  04394100   [8]  00 00 00 00 F0 00 60 00
  can0  04394000   [4]  00 00 00 C3
  can0  03029000   [8]  00 00 00 00 00 00 00 00
  can0  0A354003   [8]  21 A3 50 6B 10 07 08 E0
  can0  03029100   [8]  00 00 00 00 00 00 00 00
  can0  06314000   [8]  00 00 00 00 00 00 00 00
  can0  062BBF00   [8]  00 00 00 00 00 00 00 00
  can0  04394100   [8]  00 00 00 00 F0 00 60 00
  can0  04394000   [4]  00 00 00 C3
  can0  02214000   [6]  00 00 00 00 00 00
  can0  03029000   [8]  00 00 00 00 00 00 00 00
  can0  0A194003   [8]  9A C5 40 00 00 00 00 00
  can0  03029100   [8]  00 00 00 00 00 00 00 00
  can0  06264000   [8]  00 00 00 00 00 00 00 80
  can0  06214000   [8]  00 04 18 00 00 00 0F 00
  can0  04394100   [8]  00 00 00 00 F0 00 60 00
  can0  063D4000   [8]  69 50 00 00 80 FE 00 00
  can0  04394000   [4]  00 00 00 C3
  can0  03029000   [8]  00 00 00 00 00 00 00 00
  can0  06254000   [8]  00 FF FF 00 FF FF FF 00
  can0  0C394003   [8]  C3 02 00 00 08 01 60 00
  can0  03029100   [8]  00 00 00 00 00 00 00 00
  can0  04394100   [8]  00 00 00 00 F0 00 60 00
  can0  06314000   [8]  00 00 00 00 00 00 00 00
  can0  04394000   [4]  00 00 00 C3
  can0  0E094000   [6]  00 1A 00 00 04 09
  can0  03029000   [8]  00 00 00 00 00 00 00 00
  can0  0E094020   [2]  00 0A
  can0  0E094003   [2]  00 1A
  can0  0E09400A   [2]  00 1A
  can0  03029100   [8]  00 00 00 00 00 00 00 00
  can0  0621400A   [2]  00 00
  can0  06314003   [8]  00 10 70 00 00 00 00 00
  can0  06314020   [4]  08 00 00 A8
  can0  02214000   [6]  00 00 00 00 00 00
  can0  04394100   [8]  00 00 00 00 F0 00 60 00
  can0  04394000   [4]  00 00 00 C3
  can0  06214000   [8]  00 04 18 00 00 00 0F 00
  can0  03029000   [8]  00 00 00 00 00 00 00 00
  can0  03029100   [8]  00 00 00 00 00 00 00 00
  can0  06284000   [8]  00 00 00 00 00 00 00 00
  can0  06254000   [8]  00 FF FF 00 FF FF FF 00
  can0  04394100   [8]  00 00 00 00 F0 00 60 00
  can0  02294000   [8]  00 00 00 00 00 00 00 00
  can0  04394000   [4]  00 00 00 C3
  can0  03029000   [8]  00 00 00 00 00 00 00 00
  can0  03029100   [8]  00 00 00 00 00 00 00 00
  can0  06314000   [8]  00 00 00 00 00 00 00 00
  can0  062BBF00   [8]  00 00 00 00 00 00 00 00
  can0  04394100   [8]  00 00 00 00 F0 00 60 00
  can0  04394000   [4]  00 00 00 C3
  can0  02214000   [6]  00 00 00 00 00 00
  can0  03029000   [8]  00 00 00 00 00 00 00 00
  can0  0C214003   [6]  21 00 18 02 20 18
  can0  03029100   [8]  00 00 00 00 00 00 00 00
  can0  06264000   [8]  00 00 00 00 00 00 00 80
  can0  06214000   [8]  00 04 18 00 00 00 0F 00
  can0  04394100   [8]  00 00 00 00 F0 00 60 00
  can0  063D4000   [8]  69 50 00 00 80 FE 00 00
  can0  04394000   [4]  00 00 00 C3
  can0  03029000   [8]  00 00 00 00 00 00 00 00
  can0  06254000   [8]  00 FF FF 00 FF FF FF 00
  can0  0C054003   [8]  04 70 04 87 89 9A 00 00
  can0  03029100   [8]  00 00 00 00 00 00 00 00
  can0  04394100   [8]  00 00 00 00 F0 00 60 00
  can0  06314000   [8]  00 00 00 00 00 00 00 00
  can0  04394000   [4]  00 00 00 C3
  can0  03029000   [8]  00 00 00 00 00 00 00 00
  can0  0621400A   [2]  00 00
  can0  03029100   [8]  00 00 00 00 00 00 00 00
  can0  06314003   [8]  00 10 70 00 00 00 00 00
  can0  02214000   [6]  00 00 00 00 00 00
  can0  04394100   [8]  00 00 00 00 F0 00 60 00
  can0  04394000   [4]  00 00 00 C3
  can0  06214000   [8]  00 04 18 00 00 00 0F 00
  can0  03029000   [8]  00 00 00 00 00 00 00 00
  can0  0A3D4003   [8]  21 A3 50 6B 10 07 08 E0
  can0  03029100   [8]  00 00 00 00 00 00 00 00
  can0  06284000   [8]  00 00 00 00 00 00 00 00
  can0  06254000   [8]  00 FF FF 00 FF FF FF 00
  can0  04394100   [8]  00 00 00 00 F0 00 60 00
  can0  04394000   [4]  00 00 00 C3
  can0  03029000   [8]  00 00 00 00 00 00 00 00
  can0  0A354003   [8]  21 A3 50 6B 10 07 08 E0
  can0  03029100   [8]  00 00 00 00 00 00 00 00
  can0  06314000   [8]  00 00 00 00 00 00 00 00
  can0  062BBF00   [8]  00 00 00 00 00 00 00 00
  can0  04394100   [8]  00 00 00 00 F0 00 60 00
  can0  04394000   [4]  00 00 00 C3
  can0  02214000   [6]  00 00 00 00 00 00
  can0  03029000   [8]  00 00 00 00 00 00 00 00
  can0  0A194003   [8]  9A C5 40 00 00 00 00 00
  can0  03029100   [8]  00 00 00 00 00 00 00 00
  can0  06264000   [8]  00 00 00 00 00 00 00 80
  can0  06214000   [8]  00 04 18 00 00 00 0F 00
  can0  04394100   [8]  00 00 00 00 F0 00 60 00
  can0  063D4000   [8]  69 50 00 00 80 FE 00 00
  can0  04394000   [4]  00 00 00 C3
  can0  03029000   [8]  00 00 00 00 00 00 00 00
  can0  06254000   [8]  00 FF FF 00 FF FF FF 00
  can0  0C394003   [8]  C3 02 00 00 08 01 60 00
  can0  03029100   [8]  00 00 00 00 00 00 00 00
  can0  04394100   [8]  00 00 00 00 F0 00 60 00
  can0  06314000   [8]  00 00 00 00 00 00 00 00
  can0  04394000   [4]  00 00 00 C3
  can0  0E094000   [6]  00 1A 00 00 04 09
  can0  03029000   [8]  00 00 00 00 00 00 00 00
  can0  0E094020   [2]  00 0A
  can0  0E094003   [2]  00 1A
  can0  0E09400A   [2]  00 1A
  can0  03029100   [8]  00 00 00 00 00 00 00 00
  can0  0621400A   [2]  00 00
  can0  06314003   [8]  00 10 70 00 00 00 00 00
  can0  06314020   [4]  10 00 00 B0
  can0  02214000   [6]  00 00 00 00 00 00
  can0  04394100   [8]  00 00 00 00 F0 00 60 00
  can0  04394000   [4]  00 00 00 C3
  can0  06214000   [8]  00 04 18 00 00 00 0F 00
  can0  03029000   [8]  00 00 00 00 00 00 00 00
  can0  03029100   [8]  00 00 00 00 00 00 00 00
  can0  06284000   [8]  00 00 00 00 00 00 00 00
  can0  06254000   [8]  00 FF FF 00 FF FF FF 00
  can0  04394100   [8]  00 00 00 00 F0 00 60 00
  can0  02294000   [8]  00 00 00 00 00 00 00 00
  can0  04394000   [4]  00 00 00 C3
  can0  03029000   [8]  00 00 00 00 00 00 00 00
  can0  03029100   [8]  00 00 00 00 00 00 00 00
  can0  06314000   [8]  00 00 00 00 00 00 00 00
  can0  062BBF00   [8]  00 00 00 00 00 00 00 00
  can0  04394100   [8]  00 00 00 00 F0 00 60 00
  can0  04394000   [4]  00 00 00 C3
  can0  02214000   [6]  00 00 00 00 00 00
  can0  03029000   [8]  00 00 00 00 00 00 00 00
  can0  0C214003   [6]  21 00 18 02 20 18
  can0  03029100   [8]  00 00 00 00 00 00 00 00
  can0  06264000   [8]  00 00 00 00 00 00 00 80
  can0  06214000   [8]  00 04 18 00 00 00 0F 00
  can0  04394100   [8]  00 00 00 00 F0 00 60 00
  can0  063D4000   [8]  69 50 00 00 80 FE 00 00
  can0  04394000   [4]  00 00 00 C3
  can0  03029000   [8]  00 00 00 00 00 00 00 00
  can0  06254000   [8]  00 FF FF 00 FF FF FF 00
  can0  0C054003   [8]  04 70 04 87 89 9A 00 00
  can0  03029100   [8]  00 00 00 00 00 00 00 00
  can0  04394100   [8]  00 00 00 00 F0 00 60 00
  can0  06314000   [8]  00 00 00 00 00 00 00 00
  can0  04394000   [4]  00 00 00 C3
  can0  03029000   [8]  00 00 00 00 00 00 00 00
  can0  0621400A   [2]  00 00
  can0  03029100   [8]  00 00 00 00 00 00 00 00
  can0  06314003   [8]  00 10 70 00 00 00 00 00
  can0  02214000   [6]  00 00 00 00 00 00
  can0  04394100   [8]  00 00 00 00 F0 00 60 00
  can0  04394000   [4]  00 00 00 C3
  can0  06214000   [8]  00 04 18 00 00 00 0F 00
  can0  03029000   [8]  00 00 00 00 00 00 00 00
  can0  0A3D4003   [8]  21 A3 50 6B 10 07 08 E0
  can0  03029100   [8]  00 00 00 00 00 00 00 00
  can0  06284000   [8]  00 00 00 00 00 00 00 00
  can0  06254000   [8]  00 FF FF 00 FF FF FF 00
  can0  04394100   [8]  00 00 00 00 F0 00 60 00
  can0  04394000   [4]  00 00 00 C3
  can0  03029000   [8]  00 00 00 00 00 00 00 00
  can0  0A354003   [8]  21 A3 50 6B 10 07 08 E0
  can0  03029100   [8]  00 00 00 00 00 00 00 00
  can0  06314000   [8]  00 00 00 00 00 00 00 00
  can0  062BBF00   [8]  00 00 00 00 00 00 00 00
  can0  04394100   [8]  00 00 00 00 F0 00 60 00
  can0  04394000   [4]  00 00 00 C3
  can0  02214000   [6]  00 00 00 00 00 00
  can0  03029000   [8]  00 00 00 00 00 00 00 00
  can0  0A194003   [8]  9A C5 40 00 00 00 00 00
  can0  03029100   [8]  00 00 00 00 00 00 00 00
  can0  06264000   [8]  00 00 00 00 00 00 00 80
  can0  06214000   [8]  00 04 18 00 00 00 0F 00
  can0  04394100   [8]  00 00 00 00 F0 00 60 00
  can0  063D4000   [8]  69 50 00 00 80 FE 00 00
  can0  04394000   [4]  00 00 00 C3
  can0  03029000   [8]  00 00 00 00 00 00 00 00
  can0  06254000   [8]  00 FF FF 00 FF FF FF 00
  can0  0C394003   [8]  C3 02 00 00 08 01 60 00
  can0  03029100   [8]  00 00 00 00 00 00 00 00
  can0  04394100   [8]  00 00 00 00 F0 00 60 00
  can0  06314000   [8]  00 00 00 00 00 00 00 00
  can0  04394000   [4]  00 00 00 C3
  can0  0E094000   [6]  00 1A 00 00 04 09
  can0  03029000   [8]  00 00 00 00 00 00 00 00
  can0  0E094020   [2]  00 0A
  can0  0E094003   [2]  00 1A
  can0  0E09400A   [2]  00 1A
  can0  03029100   [8]  00 00 00 00 00 00 00 00
  can0  0621400A   [2]  00 00
  can0  06314003   [8]  00 10 70 00 00 00 00 00
  can0  06314020   [4]  18 00 00 B0
  can0  02214000   [6]  00 00 00 00 00 00
  can0  04394100   [8]  00 00 00 00 F0 00 60 00
  can0  04394000   [4]  00 00 00 C3
  can0  06214000   [8]  00 04 18 00 00 00 0F 00
  can0  03029000   [8]  00 00 00 00 00 00 00 00
  can0  03029100   [8]  00 00 00 00 00 00 00 00
  can0  06284000   [8]  00 00 00 00 00 00 00 00
  can0  06254000   [8]  00 FF FF 00 FF FF FF 00
  can0  04394100   [8]  00 00 00 00 F0 00 60 00
  can0  02294000   [8]  00 00 00 00 00 00 00 00
  can0  04394000   [4]  00 00 00 C3
  can0  03029000   [8]  00 00 00 00 00 00 00 00
  can0  03029100   [8]  00 00 00 00 00 00 00 00
  can0  06314000   [8]  00 00 00 00 00 00 00 00
  can0  062BBF00   [8]  00 00 00 00 00 00 00 00
  can0  04394100   [8]  00 00 00 00 F0 00 60 00
  can0  04394000   [4]  00 00 00 C3
  can0  02214000   [6]  00 00 00 00 00 00
  can0  03029000   [8]  00 00 00 00 00 00 00 00
  can0  0C214003   [6]  21 00 18 02 20 18
  can0  03029100   [8]  00 00 00 00 00 00 00 00
  can0  06264000   [8]  00 00 00 00 00 00 00 80
  can0  06214000   [8]  00 04 18 00 00 00 0F 00
  can0  04394100   [8]  00 00 00 00 F0 00 60 00
  can0  063D4000   [8]  69 50 00 00 80 FE 00 00
  can0  04394000   [4]  00 00 00 C3
  can0  03029000   [8]  00 00 00 00 00 00 00 00
  can0  06254000   [8]  00 FF FF 00 FF FF FF 00
  can0  0C054003   [8]  04 70 04 87 89 9A 00 00
  can0  03029100   [8]  00 00 00 00 00 00 00 00
  can0  04394100   [8]  00 00 00 00 F0 00 60 00
  can0  06314000   [8]  00 00 00 00 00 00 00 00
  can0  04394000   [4]  00 00 00 C3
  can0  03029000   [8]  00 00 00 00 00 00 00 00
  can0  0621400A   [2]  00 00
  can0  03029100   [8]  00 00 00 00 00 00 00 00
  can0  06314003   [8]  00 10 70 00 00 00 00 00
  can0  02214000   [6]  00 00 00 00 00 00
  can0  04394100   [8]  00 00 00 00 F0 00 60 00
  can0  04394000   [4]  00 00 00 C3
  can0  06214000   [8]  00 04 18 00 00 00 0F 00
  can0  03029000   [8]  00 00 00 00 00 00 00 00
  can0  0A3D4003   [8]  21 A3 50 6B 10 07 08 E0
  can0  03029100   [8]  00 00 00 00 00 00 00 00
  can0  06284000   [8]  00 00 00 00 00 00 00 00
  can0  06254000   [8]  00 FF FF 00 FF FF FF 00
  can0  04394100   [8]  00 00 00 00 F0 00 60 00
  can0  04394000   [4]  00 00 00 C3
  can0  03029000   [8]  00 00 00 00 00 00 00 00
  can0  0A354003   [8]  21 A3 50 6B 10 07 08 E0
  can0  03029100   [8]  00 00 00 00 00 00 00 00
  can0  06314000   [8]  00 00 00 00 00 00 00 00
  can0  062BBF00   [8]  00 00 00 00 00 00 00 00
  can0  04394100   [8]  00 00 00 00 F0 00 60 00
  can0  04394000   [4]  00 00 00 C3
  can0  02214000   [6]  00 00 00 00 00 00
  can0  03029000   [8]  00 00 00 00 00 00 00 00
  can0  0A194003   [8]  9A C5 40 00 00 00 00 00
  can0  03029100   [8]  00 00 00 00 00 00 00 00
  can0  06214000   [8]  00 04 48 00 00 00 0F 00
  can0  06264000   [8]  00 00 00 00 00 00 00 80
  can0  06214000   [8]  00 04 48 00 00 00 0F 00
  can0  04394100   [8]  00 00 00 00 F0 00 60 00
  can0  063D4000   [8]  69 50 00 00 80 FE 00 00
  can0  04394000   [4]  00 00 00 C3
  can0  04214006   [8]  00 00 00 00 00 00 00 00
  can0  03029000   [8]  00 00 00 00 00 00 02 00
  can0  06254000   [8]  00 FF FF 00 FF FF FF 00
  can0  0C394003   [8]  C3 02 00 00 08 01 60 00
  can0  03029100   [8]  00 00 00 00 00 00 00 00
  can0  04214001   [8]  00 83 90 5D 00 00 00 00
  can0  04294001   [8]  00 00 A7 00 00 00 04 00
  can0  0421400B   [8]  00 00 00 00 00 00 00 00
  can0  04394100   [8]  80 08 00 00 F4 00 60 00
  can0  0E094018   [2]  00 1C
  can0  06314018   [8]  C0 00 00 00 00 00 00 00
  can0  04214001   [8]  00 83 91 5D 00 00 00 00
  can0  06314000   [8]  40 00 00 00 00 00 00 00
  can0  04394000   [4]  00 00 00 C3
  can0  06314018   [8]  C0 00 00 00 00 00 00 00
  can0  04294001   [8]  00 00 A7 00 00 00 04 00
  can0  04214006   [8]  00 00 00 00 00 00 00 00
  can0  0E094000   [6]  00 1E 01 40 1C 4B
  can0  03029000   [8]  00 00 00 00 00 00 02 00
  can0  0E094003   [2]  00 1E
  can0  0E094018   [2]  00 1E
  can0  0E09401A   [2]  00 1C
  can0  06314003   [8]  00 10 70 00 00 00 00 00
  can0  03029100   [8]  00 00 00 00 00 00 00 00
  can0  0302911A   [4]  00 00 01 EC
  can0  0621401A   [8]  A0 00 00 00 80 00 00 00
  can0  0E09400A   [2]  00 1A
  can0  0E094020   [2]  00 0A
  can0  0621400A   [2]  00 00
  can0  04214001   [8]  00 83 91 5D 00 00 00 00
  can0  0621401A   [8]  A0 05 00 00 92 00 00 00
  can0  02214000   [6]  00 00 00 00 00 00
  can0  06314020   [4]  08 00 00 A8
  can0  04294001   [8]  00 00 A7 00 00 00 04 00
  can0  0421400B   [8]  00 D6 3E 04 00 00 00 00
  can0  04394100   [8]  80 08 00 00 F4 00 60 00
  can0  04214001   [8]  00 83 91 5D 00 00 00 00
  can0  04394000   [4]  00 00 00 C3
  can0  04294001   [8]  00 00 A7 00 00 00 04 00
  can0  04214006   [8]  00 00 00 00 00 00 00 00
  can0  06214000   [8]  00 04 48 00 00 00 0F 00
  can0  03029000   [8]  00 00 00 00 00 00 02 00
  can0  03029100   [8]  00 00 00 00 00 00 00 00
  can0  0302911A   [4]  53 00 02 3F
  can0  06284000   [8]  00 00 00 00 00 00 00 00
  can0  04214001   [8]  00 83 91 5D 00 00 00 00
  can0  04294001   [8]  00 00 A7 00 00 00 04 00
  can0  0421400B   [8]  00 D6 3E 04 00 00 00 00
  can0  06254000   [8]  00 FF FF 00 FF FF FF 00
  can0  04394100   [8]  7F A8 0B 00 04 00 80 00
  can0  02294000   [8]  00 00 00 00 00 00 00 00
  can0  04214001   [8]  00 83 91 5D 00 00 00 00
  can0  06314003   [8]  A2 10 70 00 80 80 00 00
  can0  04394000   [4]  00 00 00 C3
  can0  04294001   [8]  00 00 A7 00 00 00 04 00
  can0  04214006   [8]  00 00 00 00 00 00 00 00
  can0  03029000   [8]  00 00 00 00 00 00 02 00
  can0  03029100   [8]  00 00 00 00 00 00 00 00
  can0  0302911A   [4]  53 00 03 22
  can0  04214001   [8]  00 83 91 5D 00 00 00 00
  can0  0A354003   [8]  21 83 40 6B 10 07 08 C0
  can0  06314000   [8]  40 00 00 00 00 00 00 00
  can0  04294001   [8]  00 00 A7 00 00 00 04 00
  can0  0A3D4003   [8]  21 83 40 6B 10 07 08 C0
  can0  0421400B   [8]  00 D6 3E 04 00 00 00 00
  can0  062BBF00   [8]  00 00 00 00 00 00 00 00
  can0  04394100   [8]  7F B8 0B 00 04 00 80 00
  can0  0621401A   [8]  A0 05 00 00 92 00 00 00
  can0  04214001   [8]  00 83 91 5D 00 00 00 00
  can0  04394000   [4]  00 00 00 C3
  can0  02214000   [6]  00 00 00 00 00 00
  can0  04294001   [8]  00 00 A8 00 00 00 04 00
  can0  04214006   [8]  00 00 00 00 00 00 00 00
  can0  03029000   [8]  00 00 00 00 00 00 00 00
  can0  0C214003   [6]  21 00 18 02 20 18
  can0  03029100   [8]  00 00 00 00 00 00 00 00
  can0  0302911A   [4]  53 00 04 71
  can0  04214001   [8]  00 83 91 5D 00 00 00 00
  can0  06264000   [8]  06 1E CA 80 10 C2 4D 00
  can0  04294001   [8]  00 00 A7 00 00 00 04 00
  can0  0421400B   [8]  00 D6 3E 04 00 00 00 00
  can0  06214000   [8]  00 04 48 00 00 00 0F 00
  can0  04394100   [8]  7F C8 0A 00 04 00 00 00
  can0  04214001   [8]  00 83 91 5D 00 00 00 00
  can0  063D4000   [8]  69 4F 00 00 0A B7 00 00
  can0  04394000   [4]  00 00 00 C3
  can0  04294001   [8]  00 00 A7 00 00 00 04 00
  can0  04214006   [8]  00 00 00 00 00 00 00 00
  can0  03029000   [8]  00 00 00 00 00 00 02 00
  can0  06254000   [8]  00 FF FF 00 FF FF FF 00
  can0  0C054003   [8]  04 70 04 87 89 9A 00 00
  can0  03029100   [8]  00 00 00 00 00 00 00 00
  can0  0302911A   [4]  53 00 05 6C
  can0  04214001   [8]  00 83 91 5D 00 00 00 00
  can0  04294001   [8]  00 00 A8 00 00 00 04 00
  can0  0421400B   [8]  00 D6 3E 04 00 00 00 00
  can0  04394100   [8]  7F B8 0C 00 04 00 80 00
  can0  04214001   [8]  00 83 91 5D 00 00 00 00
  can0  06314000   [8]  40 00 00 00 00 00 00 00
  can0  04394000   [4]  00 00 00 C3
  can0  04294001   [8]  00 00 A7 00 00 00 04 00
  can0  04214006   [8]  00 00 00 00 00 00 00 00
  can0  03029000   [8]  00 00 00 00 00 00 00 00
  can0  06214000   [8]  00 04 48 00 00 00 0B 00
  can0  0621400A   [2]  00 00
  can0  03029100   [8]  00 00 00 00 00 00 00 00
  can0  0302911A   [4]  53 00 06 4B
  can0  0621401A   [8]  A0 05 00 00 92 00 00 00
  can0  06314003   [8]  A2 10 70 00 80 80 00 00
  can0  04214001   [8]  00 83 91 5D 00 00 00 00
  can0  02214000   [6]  00 00 00 00 00 00
  can0  04294001   [8]  00 00 A8 00 00 00 04 00
  can0  0421400B   [8]  00 D6 3E 04 00 00 00 00
  can0  0621401A   [8]  A0 05 01 00 92 00 00 00
  can0  04394100   [8]  7F D8 0D 00 04 00 00 00
  can0  04214001   [8]  00 83 91 5D 00 00 00 00
  can0  04394000   [4]  00 00 00 C3
  can0  04294001   [8]  00 00 A8 00 00 00 04 00
  can0  04214006   [8]  00 00 00 00 00 00 00 00
  can0  06214000   [8]  00 04 48 00 00 00 0B 00
  can0  03029000   [8]  00 00 00 00 00 00 02 00
  can0  0A3D4003   [8]  21 83 40 6B 10 07 08 C0
  can0  03029100   [8]  00 00 00 00 00 00 00 00
  can0  0302911A   [4]  53 00 07 56
  can0  06284000   [8]  00 00 00 00 00 00 00 00
  can0  04214001   [8]  00 83 91 5D 00 00 00 00
  can0  04294001   [8]  00 00 A8 00 00 00 04 00
  can0  0421400B   [8]  00 D6 3E 04 00 00 00 00
  can0  06254000   [8]  00 FF FF 00 FF FF FF 00
  can0  04394100   [8]  7F B8 0B 00 04 00 00 00
  can0  04214001   [8]  00 83 91 5D 00 00 00 00
  can0  04394000   [4]  00 00 00 C3
  can0  04294001   [8]  00 00 A8 00 00 00 04 00
  can0  04214006   [8]  00 00 00 00 00 00 00 00
  can0  03029000   [8]  00 00 00 00 00 00 02 00
  can0  0A354003   [8]  21 83 40 6B 10 07 08 C0
  can0  03029100   [8]  00 00 00 00 00 00 00 00
  can0  0302911A   [4]  53 00 08 ED
  can0  04214001   [8]  00 83 91 5D 00 00 00 00
  can0  06314000   [8]  40 00 00 00 00 00 00 00
  can0  04294001   [8]  00 00 A8 00 00 00 04 00
  can0  0421400B   [8]  00 D6 3E 04 00 00 00 00
  can0  062BBF00   [8]  00 00 00 00 00 00 00 00
  can0  04394100   [8]  7F B8 0B 00 04 00 00 00
  can0  0621401A   [8]  A0 05 01 00 92 00 00 00
  can0  04214001   [8]  00 83 91 5D 00 00 00 00
  can0  04394000   [4]  00 00 00 C3
  can0  02214000   [6]  00 00 00 00 00 00
  can0  04294001   [8]  00 00 A8 00 00 00 04 00
  can0  04214006   [8]  00 00 00 00 00 00 00 00
  can0  03029000   [8]  00 00 00 00 00 00 02 00
  can0  0A194003   [8]  9A C5 40 00 00 00 00 00
  can0  03029100   [8]  00 00 00 00 00 00 00 00
  can0  0302911A   [4]  53 00 09 F0
  can0  1E114000   [0] 
  can0  1E114018   [6]  10 00 00 15 24 50
  can0  1E11401A   [6]  10 00 00 15 24 50
  can0  04214001   [8]  00 83 91 5D 00 00 00 00
  can0  06264000   [8]  06 1E CC 80 00 C2 4D 00
  can0  0C3D4000   [2]  00 87
  can0  1E114003   [6]  10 00 00 15 24 50
  can0  04294001   [8]  00 00 A8 00 00 00 04 00
  can0  0421400B   [8]  00 D6 3E 04 00 00 00 00
  can0  1E11400A   [6]  10 00 00 15 24 50
  can0  1E114020   [6]  10 00 00 15 24 50
  can0  06214000   [8]  00 04 48 00 00 00 0B 00
  can0  04394100   [8]  7F C8 0A 00 04 00 00 00
  can0  04214001   [8]  00 83 91 5D 00 00 00 00
  can0  063D4000   [8]  69 4F 00 00 0A B7 00 00
  can0  04394000   [4]  00 00 00 C3
  can0  04294001   [8]  00 00 A8 00 00 00 04 00
  can0  04214006   [8]  00 00 00 00 00 00 00 00
  can0  03029000   [8]  00 00 00 00 00 00 02 00
  can0  06254000   [8]  00 FF FF 00 FF FF FF 00
  can0  0C394003   [8]  C3 02 00 00 08 01 60 00
  can0  03029100   [8]  00 00 00 00 00 00 00 00
  can0  0302911A   [4]  53 00 0A D7
  can0  04214001   [8]  00 83 91 5D 00 00 00 00
  can0  04294001   [8]  00 00 A8 00 00 00 04 00
  can0  0421400B   [8]  00 D6 3E 04 00 00 00 00
  can0  04394100   [8]  7F C8 0C 00 04 00 00 00
  can0  04214001   [8]  00 83 91 5D 00 00 00 00
  can0  06314000   [8]  40 00 00 00 00 00 00 00
  can0  06314018   [8]  C0 00 00 00 00 00 00 00
  can0  04394000   [4]  00 00 00 C3
  can0  04294001   [8]  00 00 A8 00 00 00 04 00
  can0  04214006   [8]  00 00 00 00 00 00 00 00
  can0  0E094000   [6]  00 1E 05 40 1C 4B
  can0  03029000   [8]  00 00 00 00 00 00 02 00
  can0  0E09401A   [2]  00 1E
  can0  0E094003   [2]  00 1E
  can0  0E094018   [2]  00 1E
  can0  0E094020   [2]  00 0A
  can0  03029100   [8]  00 00 00 00 00 00 00 00
  can0  0302911A   [4]  53 00 0B CA
  can0  0621401A   [8]  A0 05 01 00 92 00 00 00
  can0  06314003   [8]  A2 10 70 00 80 80 00 00
  can0  06314020   [4]  08 00 00 A8
  can0  0E09400A   [2]  00 1E
  can0  04214001   [8]  00 83 91 5D 00 00 00 00
  can0  0621400A   [2]  00 00
  can0  02214000   [6]  00 00 00 00 00 00
  can0  04294001   [8]  00 00 A8 00 00 00 04 00
  can0  0421400B   [8]  00 D6 3E 04 00 00 00 00
  can0  04394100   [8]  7F B8 0C 00 04 01 00 00
  can0  04214001   [8]  00 83 91 5D 00 00 00 00
  can0  04394000   [4]  00 00 00 C3
  can0  04294001   [8]  00 00 A8 00 00 00 04 00
  can0  04214006   [8]  00 00 00 00 00 00 00 00
  can0  06214000   [8]  00 04 48 00 00 00 0B 00
  can0  03029000   [8]  00 00 00 00 00 00 02 00
  can0  03029100   [8]  00 00 00 00 00 00 00 00
  can0  0302911A   [4]  53 00 0C 99
  can0  06284000   [8]  00 00 00 00 00 00 00 00
  can0  04214001   [8]  00 83 91 5D 00 00 00 00
  can0  04294001   [8]  00 00 A8 00 00 00 04 00
  can0  0421400B   [8]  00 D6 3E 04 00 00 00 00
  can0  06254000   [8]  00 FF FF 00 FF FF FF 00
  can0  04394100   [8]  7F B8 0A 00 03 FF 80 00
  can0  02294000   [8]  00 00 00 00 00 00 00 00
  can0  04214001   [8]  00 83 91 5D 00 00 00 00
  can0  04394000   [4]  00 00 00 C3
  can0  04294001   [8]  00 00 A8 00 00 00 04 00
  can0  04214006   [8]  00 00 00 00 00 00 00 00
  can0  03029000   [8]  00 00 00 00 00 00 02 00
  can0  03029100   [8]  00 00 00 00 00 00 00 00
  can0  0302911A   [4]  53 00 0D 84
  can0  04214001   [8]  00 83 91 5D 00 00 00 00
  can0  06314000   [8]  40 00 00 00 00 00 00 00
  can0  04294001   [8]  00 00 A8 00 00 00 04 00
  can0  0421400B   [8]  00 D6 3E 04 00 00 00 00
  can0  062BBF00   [8]  00 00 00 00 00 00 00 00
  can0  04394100   [8]  7F 88 0C 00 03 FF 80 00
  can0  0621401A   [8]  A0 05 01 00 92 00 00 00
  can0  04214001   [8]  00 83 91 5D 00 00 00 00
  can0  04394000   [4]  00 00 00 C3
  can0  02214000   [6]  00 00 00 00 00 00
  can0  04294001   [8]  00 00 A8 00 00 00 04 00
  can0  04214006   [8]  00 00 00 00 00 00 00 00
  can0  03029000   [8]  00 00 00 00 00 00 02 00
  can0  0C214003   [6]  21 00 18 02 20 18
  can0  03029100   [8]  00 00 00 00 00 00 00 00
  can0  0302911A   [4]  53 00 0E A3
  can0  04214001   [8]  00 83 91 5D 00 00 00 00
  can0  06264000   [8]  18 1E CC 7F F0 C2 4D 00
  can0  04294001   [8]  00 00 A8 00 00 00 04 00
  can0  0421400B   [8]  00 D6 3E 04 00 00 00 00
  can0  06214000   [8]  00 04 48 00 00 00 0B 00
  can0  04394100   [8]  7F B8 0D 00 03 FF 80 00
  can0  04214001   [8]  00 83 91 5D 00 00 00 00
  can0  063D4000   [8]  69 4E 00 00 0A B7 00 00
  can0  04394000   [4]  00 00 00 C3
  can0  04294001   [8]  00 00 A8 00 00 00 04 00
  can0  04214006   [8]  00 00 00 00 00 00 00 00
  can0  03029000   [8]  00 00 00 00 00 00 02 00
  can0  06254000   [8]  00 FF FF 00 FF FF FF 00
  can0  0C054003   [8]  04 70 04 87 89 9A 00 00
  can0  03029100   [8]  00 00 00 00 00 00 00 00
  can0  0302911A   [4]  53 00 0F BE
  can0  04214001   [8]  00 83 91 5D 00 00 00 00
  can0  04294001   [8]  00 00 A8 00 00 00 04 00
  can0  0421400B   [8]  00 D6 3E 04 00 00 00 00
  can0  04394100   [8]  7F C8 0A 00 03 FF 80 00
  can0  04214001   [8]  00 83 91 5D 00 00 00 00
  can0  06314000   [8]  40 00 00 00 00 00 00 00
  can0  04394000   [4]  00 00 00 C3
  can0  04294001   [8]  00 00 A8 00 00 00 04 00
  can0  04214006   [8]  00 00 00 00 00 00 00 00
  can0  03029000   [8]  00 00 00 00 00 00 02 00
  can0  0621400A   [2]  00 00
  can0  03029100   [8]  00 00 00 00 00 00 00 00
  can0  0302911A   [4]  53 00 00 05
  can0  0621401A   [8]  A0 05 01 00 92 00 00 00
  can0  06314003   [8]  A2 10 70 00 80 80 00 00
  can0  04214001   [8]  00 83 91 5D 00 00 00 00
  can0  02214000   [6]  00 00 00 00 00 00
  can0  04294001   [8]  00 00 A8 00 00 00 04 00
  can0  0421400B   [8]  00 D6 3E 04 00 00 00 00
  can0  04394100   [8]  7F B8 0A 00 04 00 80 00
  can0  04214001   [8]  00 83 91 5D 00 00 00 00
  can0  04394000   [4]  00 00 00 C3
  can0  04294001   [8]  00 00 A8 00 00 00 04 00
  can0  04214006   [8]  00 00 00 00 00 00 00 00
  can0  06214000   [8]  00 04 48 00 00 00 0B 00
  can0  03029000   [8]  00 00 00 00 00 00 02 00
  can0  0A3D4003   [8]  21 83 40 6B 10 07 08 C0
  can0  03029100   [8]  00 00 00 00 00 00 00 00
  can0  0302911A   [4]  53 00 01 18
  can0  06284000   [8]  00 00 00 00 00 00 00 00
  can0  04214001   [8]  00 83 91 5D 00 00 00 00
  can0  04294001   [8]  00 00 A8 00 00 00 04 00
  can0  0421400B   [8]  00 D6 3E 04 00 00 00 00
  can0  06254000   [8]  00 FF FF 00 FF FF FF 00
  can0  04394100   [8]  7F B8 0C 00 03 FF 80 00
  can0  04214001   [8]  00 83 91 5D 00 00 00 00
  can0  04394000   [4]  00 00 00 C3
  can0  04294001   [8]  00 00 A8 00 00 00 04 00
  can0  04214006   [8]  00 00 00 00 00 00 00 00
  can0  03029000   [8]  00 00 00 00 00 00 02 00
  can0  0A354003   [8]  21 83 40 6B 10 07 08 C0
  can0  03029100   [8]  00 00 00 00 00 00 00 00
  can0  0302911A   [4]  53 00 02 3F
  can0  04214001   [8]  00 83 91 5D 00 00 00 00
  can0  06314000   [8]  40 00 00 00 00 00 00 00
  can0  04294001   [8]  00 00 A8 00 00 00 04 00
  can0  0421400B   [8]  00 D6 3E 04 00 00 00 00
  can0  062BBF00   [8]  00 00 00 00 00 00 00 00
  can0  04394100   [8]  7F C8 0A 00 03 FF 80 00
  can0  0621401A   [8]  A0 05 01 00 92 00 00 00
  can0  04214001   [8]  00 83 91 5D 00 00 00 00
  can0  04394000   [4]  00 00 00 C3
  can0  02214000   [6]  00 00 00 00 00 00
  can0  04294001   [8]  00 00 A8 00 00 00 04 00
  can0  04214006   [8]  00 00 00 00 00 00 00 00
  can0  03029000   [8]  00 00 00 00 00 00 02 00
  can0  0A194003   [8]  9A C5 40 00 00 00 00 00
  can0  03029100   [8]  00 00 00 00 00 00 00 00
  can0  0302911A   [4]  53 00 03 22
  can0  1E114000   [0] 
  can0  1E114018   [6]  10 00 00 15 24 50
  can0  1E114020   [6]  10 00 00 15 24 50
  can0  04214001   [8]  00 83 91 5D 00 00 00 00
  can0  06264000   [8]  06 1E CC 7F F0 C2 4D 00
  can0  0C3D4000   [2]  00 87
  can0  1E114003   [6]  10 00 00 15 24 50
  can0  04294001   [8]  00 00 A8 00 00 00 04 00
  can0  0421400B   [8]  00 D6 3E 04 00 00 00 00
  can0  1E11400A   [6]  10 00 00 15 24 50
  can0  1E11401A   [6]  10 00 00 15 24 50
  can0  06214000   [8]  00 04 48 00 00 4B 0B 00
  can0  04394100   [8]  7F A8 0A 00 03 FF 80 00
  can0  04214001   [8]  00 83 91 5D 00 00 00 00
  can0  063D4000   [8]  69 4E 00 00 0A B7 00 00
  can0  04394000   [4]  00 00 00 C3
  can0  04294001   [8]  00 00 A8 00 00 00 04 00
  can0  04214006   [8]  00 00 00 00 00 00 00 00
  can0  03029000   [8]  00 00 00 00 00 00 02 00
  can0  06254000   [8]  00 FF FF 00 FF FF FF 00
  can0  0C394003   [8]  C3 02 00 00 08 01 60 00
  can0  03029100   [8]  00 00 00 00 00 00 00 00
  can0  0302911A   [4]  53 00 04 71
  can0  04214001   [8]  00 83 91 5D 00 00 00 00
  can0  04294001   [8]  00 00 A8 00 00 00 04 00
  can0  0421400B   [8]  00 D6 3E 04 00 00 00 00
  can0  04394100   [8]  7F B8 0A 00 03 FF 80 00
  can0  04214001   [8]  00 83 91 5D 00 00 00 00
  can0  06314018   [8]  C0 00 00 00 00 00 00 00
  can0  06314000   [8]  40 00 00 00 00 00 00 00
  can0  04394000   [4]  00 00 00 C3
  can0  04294001   [8]  00 00 A8 00 00 00 04 00
  can0  04214006   [8]  00 00 00 00 00 00 00 00
  can0  0E094000   [6]  00 1E 05 40 1C 4B
  can0  03029000   [8]  00 00 00 00 00 00 02 00
  can0  0E09401A   [2]  00 1E
  can0  0E094003   [2]  00 1E
  can0  0E094018   [2]  00 1E
  can0  0E094020   [2]  00 0A
  can0  03029100   [8]  00 00 00 00 00 00 00 00
  can0  0302911A   [4]  53 00 05 6C
  can0  0621401A   [8]  A0 05 01 00 92 00 00 00
  can0  06314003   [8]  A2 10 70 00 80 80 00 00
  can0  06314020   [4]  10 00 00 B0
  can0  0E09400A   [2]  00 1E
  can0  0621400A   [2]  00 00
  can0  04214001   [8]  00 83 91 5D 00 00 00 00
  can0  02214000   [6]  00 00 00 00 00 00
  can0  04294001   [8]  00 00 A8 00 00 00 04 00
  can0  0421400B   [8]  00 D6 3E 04 00 00 00 00
  can0  04394100   [8]  7F A8 0E 00 03 FF 80 00
  can0  04214001   [8]  00 83 91 5D 00 00 00 00
  can0  04394000   [4]  00 00 00 C3
  can0  04294001   [8]  00 00 A8 00 00 00 04 00
  can0  04214006   [8]  00 00 00 00 00 00 00 00
  can0  06214000   [8]  00 04 48 00 00 4B 0B 00
  can0  03029000   [8]  00 00 00 00 00 00 02 00
  can0  03029100   [8]  00 00 00 00 00 00 00 00
  can0  0302911A   [4]  53 00 06 4B
  can0  06284000   [8]  00 00 00 00 00 00 00 00
  can0  04214001   [8]  00 83 91 5D 00 00 00 00
  can0  04294001   [8]  00 00 A8 00 00 00 04 00
  can0  0421400B   [8]  00 D6 3E 04 00 00 00 00
  can0  06254000   [8]  00 FF FF 00 FF FF FF 00
  can0  04394100   [8]  7F C8 0C 00 04 00 00 00
  can0  02294000   [8]  00 00 00 00 00 00 00 00
  can0  04214001   [8]  00 83 91 5D 00 00 00 00
  can0  04394000   [4]  00 00 00 C3
  can0  04294001   [8]  00 00 A8 00 00 00 04 00
  can0  04214006   [8]  00 00 00 00 00 00 00 00
  can0  03029000   [8]  00 00 00 00 00 00 00 00
  can0  03029100   [8]  00 00 00 00 00 00 00 00
  can0  0302911A   [4]  53 00 07 56
  can0  04214001   [8]  00 83 91 5D 00 00 00 00
  can0  06314000   [8]  40 00 00 00 00 00 00 00
  can0  04294001   [8]  00 00 A8 00 00 00 04 00
  can0  0421400B   [8]  00 D6 3E 04 00 00 00 00
  can0  062BBF00   [8]  00 00 00 00 00 00 00 00
  can0  04394100   [8]  7F 98 0C 00 03 FF 80 00
  can0  0621401A   [8]  A0 05 01 00 92 00 00 00
  can0  04214001   [8]  00 83 91 5D 00 00 00 00
  can0  04394000   [4]  00 00 00 C3
  can0  02214000   [6]  00 00 00 00 00 00
  can0  04294001   [8]  00 00 A8 00 00 00 04 00
  can0  04214006   [8]  00 00 00 00 00 00 00 00
  can0  03029000   [8]  00 00 00 00 00 00 02 00
  can0  0C214003   [6]  21 00 18 02 20 18
  can0  03029100   [8]  00 00 00 00 00 00 00 00
  can0  0302911A   [4]  53 00 08 ED
  can0  04214001   [8]  00 83 91 5D 00 00 00 00
  can0  06264000   [8]  06 1E CC 7F F0 C2 4D 00
  can0  04294001   [8]  00 00 A8 00 00 00 04 00
  can0  0421400B   [8]  00 D6 3E 04 00 00 00 00
  can0  06214000   [8]  00 04 48 00 00 4B 0B 00
  can0  04394100   [8]  7F 98 0A 00 03 FF 80 00
  can0  04214001   [8]  00 83 91 5D 00 00 00 00
  can0  063D4000   [8]  69 4E 00 00 0A B7 00 00
  can0  04394000   [4]  00 00 00 C3
  can0  04294001   [8]  00 00 A8 00 00 00 04 00
  can0  04214006   [8]  00 00 00 00 00 00 00 00
  can0  03029000   [8]  00 00 00 00 00 00 02 00
  can0  06254000   [8]  00 FF FF 00 FF FF FF 00
  can0  0C054003   [8]  04 70 04 87 89 9A 00 00
  can0  03029100   [8]  00 00 00 00 00 00 00 00
  can0  0302911A   [4]  53 00 09 F0
  can0  04214001   [8]  00 83 91 5D 00 00 00 00
  can0  04294001   [8]  00 00 A8 00 00 00 04 00
  can0  0421400B   [8]  00 D6 3E 04 00 00 00 00
  can0  04394100   [8]  7F 98 0D 00 03 FF 80 00
  can0  04214001   [8]  00 83 91 5D 00 00 00 00
  can0  06314000   [8]  40 00 00 00 00 00 00 00
  can0  04394000   [4]  00 00 00 C3
  can0  04294001   [8]  00 00 A8 00 00 00 04 00
  can0  04214006   [8]  00 00 00 00 00 00 00 00
  can0  03029000   [8]  00 00 00 00 00 00 02 00
  can0  0621400A   [2]  00 00
  can0  03029100   [8]  00 00 00 00 00 00 00 00
  can0  0302911A   [4]  53 00 0A D7
  can0  0621401A   [8]  A0 05 01 00 92 00 00 00
  can0  06314003   [8]  A2 10 70 00 80 80 00 00
  can0  04214001   [8]  00 83 91 5D 00 00 00 00
  can0  02214000   [6]  00 00 00 00 00 00
  can0  04294001   [8]  00 00 A8 00 00 00 04 00
  can0  0421400B   [8]  00 D6 3E 04 00 00 00 00
  can0  04394100   [8]  7F 88 0C 00 04 00 00 00
  can0  04214001   [8]  00 83 91 5D 00 00 00 00
  can0  04394000   [4]  00 00 00 C3
  can0  04294001   [8]  00 00 A8 00 00 00 04 00
  can0  04214006   [8]  00 00 00 00 00 00 00 00
  can0  06214000   [8]  00 04 48 00 00 4B 0B 00
  can0  03029000   [8]  00 00 00 00 00 00 02 00
  can0  0A3D4003   [8]  21 83 40 6B 10 07 08 C0
  can0  03029100   [8]  00 00 00 00 00 00 00 00
  can0  0302911A   [4]  53 00 0B CA
  can0  06284000   [8]  00 00 00 00 00 00 00 00
  can0  04214001   [8]  00 83 91 5D 00 00 00 00
  can0  04294001   [8]  00 00 A8 00 00 00 04 00
  can0  0421400B   [8]  00 D6 3E 04 00 00 00 00
  can0  06254000   [8]  00 FF FF 00 FF FF FF 00
  can0  04394100   [8]  7F B8 0B 00 03 FF 80 00
  can0  04214001   [8]  00 83 91 5D 00 00 00 00
  can0  04394000   [4]  00 00 00 C3
  can0  04294001   [8]  00 00 A8 00 00 00 04 00
  can0  04214006   [8]  00 00 00 00 00 00 00 00
  can0  03029000   [8]  00 00 00 00 00 00 02 00
  can0  0302911A   [4]  53 00 0C 99
  can0  03029100   [8]  00 00 00 00 00 00 00 00
  can0  0A354003   [8]  21 83 40 6B 10 07 08 C0
  can0  04214001   [8]  00 83 91 5D 00 00 00 00
  can0  06314000   [8]  40 00 00 00 00 00 00 00
  can0  04294001   [8]  00 00 A8 00 00 00 04 00
  can0  0421400B   [8]  00 D6 3E 04 00 00 00 00
  can0  062BBF00   [8]  00 00 00 00 00 00 00 00
  can0  0621401A   [8]  A0 05 01 00 92 00 00 00
  can0  04394100   [8]  7F A8 0A 00 04 00 00 00
  can0  04214001   [8]  00 83 91 5D 00 00 00 00
  can0  04394000   [4]  00 00 00 C3
  can0  02214000   [6]  00 00 00 00 00 00
  can0  04294001   [8]  00 00 A8 00 00 00 04 00
  can0  04214006   [8]  00 00 00 00 00 00 00 00
  can0  03029000   [8]  00 00 00 00 00 00 02 00
  can0  0302911A   [4]  53 00 0D 84
  can0  03029100   [8]  00 00 00 00 00 00 00 00
  can0  0A194003   [8]  9A C5 40 00 00 00 00 00
  can0  1E114000   [0] 
  can0  1E114018   [6]  10 00 00 15 24 50
  can0  1E114020   [6]  10 00 00 15 24 50
  can0  04214001   [8]  00 83 91 5D 00 00 00 00
  can0  06264000   [8]  18 1E CC 7F E0 C2 4D 00
  can0  0C3D4000   [2]  00 87
  can0  1E114003   [6]  10 00 00 15 24 50
  can0  04294001   [8]  00 00 A8 00 00 00 04 00
  can0  0421400B   [8]  00 D6 3E 04 00 00 00 00
  can0  1E11400A   [6]  10 00 00 15 24 50
  can0  1E11401A   [6]  10 00 00 15 24 50
  can0  06214000   [8]  00 04 48 00 00 4B 0B 00
  can0  04394100   [8]  7F A8 0B 00 03 FF 00 00
  can0  04214001   [8]  00 83 91 5D 00 00 00 00
  can0  063D4000   [8]  69 4E 00 00 0A B7 00 00
  can0  04394000   [4]  00 00 00 C3
  can0  04294001   [8]  00 00 A8 00 00 00 04 00
  can0  04214006   [8]  00 00 00 00 00 00 00 00
  can0  03029000   [8]  00 00 00 00 00 00 02 00
  can0  06254000   [8]  00 FF FF 00 FF FF FF 00
  can0  0302911A   [4]  53 00 0E A3
  can0  03029100   [8]  00 00 00 00 00 00 00 00
  can0  0C394003   [8]  C3 02 00 00 08 01 60 00
  can0  04214001   [8]  00 83 91 5D 00 00 00 00
  can0  04294001   [8]  00 00 A8 00 00 00 04 00
  can0  0421400B   [8]  00 D6 3E 04 00 00 00 00
  can0  04394100   [8]  7F A8 0B 00 03 FF 80 00
  can0  04214001   [8]  00 83 91 5D 00 00 00 00
  can0  06314000   [8]  40 00 00 00 00 00 00 00
  can0  04394000   [4]  00 00 00 C3
  can0  06314018   [8]  C0 00 00 00 00 00 00 00
  can0  04294001   [8]  00 00 A8 00 00 00 04 00
  can0  04214006   [8]  00 00 00 00 00 00 00 00
  can0  0E094000   [6]  00 1E 05 40 1C 4B
  can0  03029000   [8]  00 00 00 00 00 00 02 00
  can0  0E094003   [2]  00 1E
  can0  0E094018   [2]  00 1E
  can0  0E094020   [2]  00 0A
  can0  0302911A   [4]  53 00 0F BE
  can0  03029100   [8]  00 00 00 00 00 00 00 00
  can0  0621401A   [8]  A0 05 01 00 92 00 00 00
  can0  06314003   [8]  A2 10 70 00 80 80 00 00
  can0  06314020   [4]  18 00 00 B0
  can0  0E09400A   [2]  00 1E
  can0  0E09401A   [2]  00 1E
  can0  04214001   [8]  00 83 91 5D 00 00 00 00
  can0  0621400A   [2]  00 00
  can0  02214000   [6]  00 00 00 00 00 00
  can0  04294001   [8]  00 00 A8 00 00 00 04 00
  can0  0421400B   [8]  00 D6 3E 04 00 00 00 00
  can0  04394100   [8]  7F 88 0B 00 03 FF 80 00
  can0  04214001   [8]  00 83 91 5D 00 00 00 00
  can0  04394000   [4]  00 00 00 C3
  can0  04294001   [8]  00 00 A8 00 00 00 04 00
  can0  04214006   [8]  00 00 00 00 00 00 00 00
  can0  06214000   [8]  00 04 48 00 00 4B 0B 00
  can0  03029000   [8]  00 00 00 00 00 00 02 00
  can0  0302911A   [4]  53 00 00 05
  can0  03029100   [8]  00 00 00 00 00 00 00 00
  can0  06284000   [8]  00 00 00 00 00 00 00 00
  can0  04214001   [8]  00 83 91 5D 00 00 00 00
  can0  04294001   [8]  00 00 A8 00 00 00 04 00
  can0  0421400B   [8]  00 D6 3E 04 00 00 00 00
  can0  06254000   [8]  00 FF FF 00 FF FF FF 00
  can0  04394100   [8]  7F 98 0A 00 03 FF 80 00
  can0  02294000   [8]  00 00 00 00 00 00 00 00
  can0  04214001   [8]  00 83 91 5D 00 00 00 00
  can0  04394000   [4]  00 00 00 C3
  can0  04294001   [8]  00 00 A8 00 00 00 04 00
  can0  04214006   [8]  00 00 00 00 00 00 00 00
  can0  03029000   [8]  00 00 00 00 00 00 02 00
  can0  0302911A   [4]  53 00 01 18
  can0  03029100   [8]  00 00 00 00 00 00 00 00
  can0  04214001   [8]  00 83 91 5D 00 00 00 00
  can0  06314000   [8]  40 00 00 00 00 00 00 00
  can0  04294001   [8]  00 00 A8 00 00 00 04 00
  can0  0421400B   [8]  00 D6 3E 04 00 00 00 00
  can0  062BBF00   [8]  00 00 00 00 00 00 00 00
  can0  0621401A   [8]  A0 05 01 00 92 00 00 00
  can0  04394100   [8]  7F B8 0B 00 03 FF 80 00
  can0  04214001   [8]  00 83 91 5D 00 00 00 00
  can0  04394000   [4]  00 00 00 C3
  can0  02214000   [6]  00 00 00 00 00 00
  can0  04294001   [8]  00 00 A8 00 00 00 04 00
  can0  04214006   [8]  00 00 00 00 00 00 00 00
  can0  03029000   [8]  00 00 00 00 00 00 02 00
  can0  0302911A   [4]  53 00 02 3F
  can0  03029100   [8]  00 00 00 00 00 00 00 00
  can0  0C214003   [6]  21 00 18 02 20 18
  can0  04214001   [8]  00 83 91 5D 00 00 00 00
  can0  06264000   [8]  18 1E CC 80 00 C2 4D 00
  can0  04294001   [8]  00 00 A8 00 00 00 04 00
  can0  0421400B   [8]  00 D6 3E 04 00 00 00 00
  can0  06214000   [8]  00 04 48 00 00 4B 0B 00
  can0  04394100   [8]  7F B8 0C 00 03 FF 00 00
  can0  04214001   [8]  00 83 91 5D 00 00 00 00
  can0  063D4000   [8]  69 4F 00 00 0A B7 00 00
  can0  04394000   [4]  00 00 00 C3
  can0  04294001   [8]  00 00 A8 00 00 00 04 00
  can0  04214006   [8]  00 00 00 00 00 00 00 00
  can0  03029000   [8]  00 00 00 00 00 00 02 00
  can0  06254000   [8]  00 FF FF 00 FF FF FF 00
  can0  0302911A   [4]  53 00 03 22
  can0  03029100   [8]  00 00 00 00 00 00 00 00
  can0  0C054003   [8]  04 70 04 87 89 9A 00 00
  can0  04214001   [8]  00 83 91 5D 00 00 00 00
  can0  04294001   [8]  00 00 A8 00 00 00 04 00
  can0  0421400B   [8]  00 D6 3E 04 00 00 00 00
  can0  04394100   [8]  7F B8 0C 00 04 00 00 00
  can0  04214001   [8]  00 83 91 5D 00 00 00 00
  can0  06314000   [8]  40 00 00 00 00 00 00 00
  can0  04394000   [4]  00 00 00 C3
  can0  04294001   [8]  00 00 A8 00 00 00 04 00
  can0  04214006   [8]  00 00 00 00 00 00 00 00
  can0  03029000   [8]  00 00 00 00 00 00 02 00
  can0  0302911A   [4]  53 00 04 71
  can0  03029100   [8]  00 00 00 00 00 00 00 00
  can0  0621400A   [2]  00 00
  can0  0621401A   [8]  A0 05 01 00 92 00 00 00
  can0  06314003   [8]  A2 10 70 00 80 80 00 00
  can0  04214001   [8]  00 83 91 5D 00 00 00 00
  can0  02214000   [6]  00 00 00 00 00 00
  can0  04294001   [8]  00 00 A8 00 00 00 04 00
  can0  0421400B   [8]  00 D6 3E 04 00 00 00 00
  can0  04394100   [8]  7F A8 0C 00 04 00 00 00
  can0  04214001   [8]  00 83 91 5D 00 00 00 00
  can0  04394000   [4]  00 00 00 C3
  can0  04294001   [8]  00 00 A8 00 00 00 04 00
  can0  04214006   [8]  00 00 00 00 00 00 00 00
  can0  06214000   [8]  00 04 48 00 00 4B 0B 00
  can0  03029000   [8]  00 00 00 00 00 00 02 00
  can0  0302911A   [4]  53 00 05 6C
  can0  0A3D4003   [8]  21 83 40 6B 10 07 08 C0
  can0  03029100   [8]  00 00 00 00 00 00 00 00
  can0  06284000   [8]  00 00 00 00 00 00 00 00
  can0  04214001   [8]  00 83 91 5D 00 00 00 00
  can0  04294001   [8]  00 00 A8 00 00 00 04 00
  can0  0421400B   [8]  00 D6 3E 04 00 00 00 00
  can0  06254000   [8]  00 FF FF 00 FF FF FF 00
  can0  04394100   [8]  7F 98 09 00 04 00 00 00
  can0  04214001   [8]  00 83 91 5D 00 00 00 00
  can0  04394000   [4]  00 00 00 C3
  can0  04294001   [8]  00 00 A8 00 00 00 04 00
  can0  04214006   [8]  00 00 00 00 00 00 00 00
  can0  03029000   [8]  00 00 00 00 00 00 02 00
  can0  0302911A   [4]  53 00 06 4B
  can0  0A354003   [8]  21 83 40 6B 10 07 08 C0
  can0  03029100   [8]  00 00 00 00 00 00 00 00
  can0  04214001   [8]  00 83 91 5D 00 00 00 00
  can0  06314000   [8]  40 00 00 00 00 00 00 00
  can0  04294001   [8]  00 00 A8 00 00 00 04 00
  can0  0421400B   [8]  00 D6 3E 04 00 00 00 00
  can0  062BBF00   [8]  00 00 00 00 00 00 00 00
  can0  0621401A   [8]  A0 05 01 00 92 00 00 00
  can0  04394100   [8]  7F A8 0B 00 04 00 00 00
  can0  04214001   [8]  00 83 91 5D 00 00 00 00
  can0  04394000   [4]  00 00 00 C3
  can0  02214000   [6]  00 00 00 00 00 00
  can0  04294001   [8]  00 00 A8 00 00 00 04 00
  can0  04214006   [8]  00 00 00 00 00 00 00 00
  can0  03029000   [8]  00 00 00 00 00 00 02 00
  can0  0302911A   [4]  53 00 07 56
  can0  0A194003   [8]  9A C5 40 00 00 00 00 00
  can0  03029100   [8]  00 00 00 00 00 00 00 00
  can0  04214001   [8]  00 83 91 5D 00 00 00 00
  can0  06264000   [8]  18 1E CC 80 00 C2 4D 00
  can0  0C3D4000   [2]  00 87
  can0  04294001   [8]  00 00 A8 00 00 00 04 00
  can0  0421400B   [8]  00 D6 3E 04 00 00 00 00
  can0  06214000   [8]  04 04 48 00 00 4B 0B 00
  can0  04394100   [8]  7F 98 0C 00 03 FF 00 00
  can0  04214001   [8]  00 83 91 5D 00 00 00 00
  can0  063D4000   [8]  69 4F 00 00 0A B7 00 00
  can0  04394000   [4]  00 00 00 C3
  can0  04294001   [8]  00 00 A8 00 00 00 04 00
  can0  04214006   [8]  00 00 00 00 00 00 00 00
  can0  03029000   [8]  00 00 00 00 00 00 02 00
  can0  06254000   [8]  00 FF FF 00 FF FF FF 00
  can0  0302911A   [4]  53 00 08 ED
  can0  0C394003   [8]  C3 02 00 00 08 01 60 00
  can0  03029100   [8]  00 00 00 00 00 00 00 00
  can0  04214001   [8]  00 81 91 5D 00 00 00 00
  can0  04294001   [8]  00 00 A8 00 00 00 04 00
  can0  0421400B   [8]  00 D6 3E 04 00 00 00 00
  can0  04394100   [8]  7F C8 0A 00 04 00 00 00
  can0  04214001   [8]  00 81 90 5D 00 00 00 00
  can0  06314000   [8]  40 00 00 00 00 00 00 00
  can0  04394000   [4]  00 00 00 C3
  can0  06314018   [8]  C0 00 00 00 00 00 00 00
  can0  04294001   [8]  00 00 A8 00 00 00 04 00
  can0  04214006   [8]  00 00 00 00 00 00 00 00
  can0  0E094000   [6]  00 1E 05 40 1C 4B
  can0  03029000   [8]  00 00 00 00 00 00 02 00
  can0  0E094003   [2]  00 1E
  can0  0E094018   [2]  00 1E
  can0  0302911A   [4]  53 00 09 F0
  can0  03029100   [8]  00 00 00 00 00 00 00 00
  can0  0621401A   [8]  A0 05 01 00 92 00 00 00
  can0  06314003   [8]  A2 10 70 00 80 80 00 00
  can0  0E09400A   [2]  00 1E
  can0  0E09401A   [2]  00 1E
  can0  0621400A   [2]  00 00
  can0  0E094020   [2]  00 0A
  can0  04214001   [8]  00 81 90 5D 00 00 00 00
  can0  02214000   [6]  00 00 00 00 00 00
  can0  06314020   [4]  08 00 00 A8
  can0  04294001   [8]  00 00 A8 00 00 00 04 00
  can0  0421400B   [8]  00 86 3E 04 00 00 00 00
  can0  04394100   [8]  7F 88 0A 00 03 FF 00 00
  can0  04214001   [8]  00 81 90 5D 00 00 00 00
  can0  04394000   [4]  00 00 00 C3
  can0  04294001   [8]  00 00 A8 00 00 00 04 00
  can0  04214006   [8]  00 00 00 00 00 00 00 00
  can0  06214000   [8]  04 04 48 00 00 4B 0B 00
  can0  03029000   [8]  00 00 00 00 00 00 02 00
  can0  0302911A   [4]  53 00 0A D7
  can0  03029100   [8]  00 00 00 00 00 00 00 00
  can0  06284000   [8]  00 00 00 00 00 00 00 00
  can0  04214001   [8]  00 81 90 5D 00 00 00 00
  can0  04294001   [8]  00 00 A8 00 00 00 04 00
  can0  0421400B   [8]  00 86 3E 04 00 00 00 00
  can0  06254000   [8]  00 FF FF 00 FF FF FF 00
  can0  04394100   [8]  7F 78 0D 00 04 00 00 00
  can0  02294000   [8]  00 00 00 00 00 00 00 00
  can0  04214001   [8]  00 81 90 5D 00 00 00 00
  can0  06314003   [8]  00 10 70 00 80 00 00 00
  can0  04394000   [4]  00 00 00 C3
  can0  04294001   [8]  00 00 A8 00 00 00 04 00
  can0  04214006   [8]  00 00 00 00 00 00 00 00
  can0  03029000   [8]  00 00 00 00 00 00 02 00
  can0  0302911A   [4]  53 00 0B CA
  can0  03029100   [8]  00 00 00 00 00 00 00 00
  can0  04214001   [8]  00 81 90 5D 00 00 00 00
  can0  06314000   [8]  40 00 00 00 00 00 00 00
  can0  04294001   [8]  00 00 A8 00 00 00 04 00
  can0  0421400B   [8]  00 86 3E 04 00 00 00 00
  can0  062BBF00   [8]  00 00 00 00 00 00 00 00
  can0  0621401A   [8]  A0 05 01 00 92 00 00 00
  can0  04394100   [8]  7F C8 0A 00 04 00 00 00
  can0  04214001   [8]  00 81 90 5D 00 00 00 00
  can0  04394000   [4]  00 00 00 C3
  can0  02214000   [6]  00 00 00 00 00 00
  can0  04294001   [8]  00 00 A8 00 00 00 04 00
  can0  04214006   [8]  00 00 00 00 00 00 00 00
  can0  03029000   [8]  00 00 00 00 00 00 02 00
  can0  0302911A   [4]  53 00 0C 99
  can0  0C214003   [6]  21 00 18 02 20 18
  can0  03029100   [8]  00 00 00 00 00 00 00 00
  can0  04214001   [8]  00 81 90 5D 00 00 00 00
  can0  06264000   [8]  18 1E CC 7F E0 C2 4D 00
  can0  04294001   [8]  00 00 A8 00 00 00 04 00
  can0  0421400B   [8]  00 86 3E 04 00 00 00 00
  can0  06214000   [8]  04 04 48 00 00 4B 0B 00
  can0  04394100   [8]  7F C8 0C 00 04 00 80 00
  can0  04214001   [8]  00 81 90 5D 00 00 00 00
  can0  063D4000   [8]  69 4F 00 00 0A B7 00 00
  can0  04394000   [4]  00 00 00 C3
  can0  04294001   [8]  00 00 A8 00 00 00 04 00
  can0  04214006   [8]  00 00 00 00 00 00 00 00
  can0  0621401A   [8]  80 05 01 00 92 00 00 00
  can0  03029000   [8]  00 00 00 00 00 00 02 00
  can0  06254000   [8]  00 FF FF 00 FF FF FF 00
  can0  0302911A   [4]  53 00 0D 84
  can0  0621401A   [8]  00 05 01 00 92 00 00 00
  can0  03029100   [8]  00 00 00 00 00 00 00 00
  can0  0C054003   [8]  04 70 04 87 89 9A 00 00
  can0  04214001   [8]  00 81 90 5D 00 00 00 00
  can0  04294001   [8]  00 00 A8 00 00 00 04 00
  can0  0421400B   [8]  00 86 3E 04 00 00 00 00
  can0  04394100   [8]  7F 88 0C 00 04 00 80 00
  can0  04214001   [8]  00 81 90 5D 00 00 00 00
  can0  06314000   [8]  40 00 00 00 00 00 00 00
  can0  04394000   [4]  00 00 00 C3
  can0  06314003   [8]  00 10 70 00 00 00 00 00
  can0  04294001   [8]  00 00 A8 00 00 00 04 00
  can0  04214006   [8]  00 00 00 00 00 00 00 00
  can0  03029000   [8]  00 00 00 00 00 00 02 00
  can0  0302911A   [4]  53 00 0E A3
  can0  0621401A   [8]  00 05 01 00 92 00 00 00
  can0  03029100   [8]  00 00 00 00 00 00 00 00
  can0  0621400A   [2]  00 00
  can0  06314003   [8]  00 10 70 00 00 00 00 00
  can0  04214001   [8]  00 81 90 5D 00 00 00 00
  can0  02214000   [6]  00 00 00 00 00 00
  can0  04294001   [8]  00 00 A8 00 00 00 04 00
  can0  0421400B   [8]  00 86 3E 04 00 00 00 00
  can0  04394100   [8]  7F A8 0B 00 04 00 00 00
  can0  04214001   [8]  00 81 90 5D 00 00 00 00
  can0  04394000   [4]  00 00 00 C3
  can0  04294001   [8]  00 00 A8 00 00 00 04 00
  can0  04214006   [8]  00 00 00 00 00 00 00 00
  can0  06214000   [8]  04 04 48 00 00 4B 0B 00
  can0  03029000   [8]  00 00 00 00 00 00 02 00
  can0  0302911A   [4]  53 00 0F BE
  can0  0A3D4003   [8]  21 83 40 6B 10 07 08 C0
  can0  03029100   [8]  00 00 00 00 00 00 00 00
  can0  06284000   [8]  00 00 00 00 00 00 00 00
  can0  04214001   [8]  00 81 90 5D 00 00 00 00
  can0  04294001   [8]  00 00 A8 00 00 00 04 00
  can0  0421400B   [8]  00 86 3E 04 00 00 00 00
  can0  06254000   [8]  00 FF FF 00 FF FF FF 00
  can0  04394100   [8]  7F B8 0C 00 04 00 00 00
  can0  04214001   [8]  00 81 90 5D 00 00 00 00
  can0  04394000   [4]  00 00 00 C3
  can0  04294001   [8]  00 00 A8 00 00 00 04 00
  can0  04214006   [8]  00 00 00 00 00 00 00 00
  can0  03029000   [8]  00 00 00 00 00 00 02 00
  can0  0302911A   [4]  53 00 00 05
  can0  0A354003   [8]  21 83 40 6B 10 07 08 C0
  can0  03029100   [8]  00 00 00 00 00 00 00 00
  can0  04214001   [8]  00 81 90 5D 00 00 00 00
  can0  06314000   [8]  40 00 00 00 00 00 00 00
  can0  04294001   [8]  00 00 A8 00 00 00 04 00
  can0  0421400B   [8]  00 86 3E 04 00 00 00 00
  can0  062BBF00   [8]  00 00 00 00 00 00 00 00
  can0  0621401A   [8]  00 05 01 00 92 00 00 00
  can0  04394100   [8]  7F A8 0B 00 03 FF 00 00
  can0  04214001   [8]  00 81 90 5D 00 00 00 00
  can0  04394000   [4]  00 00 00 C3
  can0  02214000   [6]  00 00 00 00 00 00
  can0  04294001   [8]  00 00 A8 00 00 00 04 00
  can0  04214006   [8]  00 00 00 00 00 00 00 00
  can0  03029000   [8]  00 00 00 00 00 00 02 00
  can0  0302911A   [4]  53 00 01 18
  can0  0A194003   [8]  9A C5 40 00 00 00 00 00
  can0  03029100   [8]  00 00 00 00 00 00 00 00
  can0  04214001   [8]  00 81 90 5D 00 00 00 00
  can0  06264000   [8]  18 1E CC 80 10 C2 4D 00
  can0  0C3D4000   [2]  00 87
  can0  04294001   [8]  00 00 A8 00 00 00 04 00
  can0  0421400B   [8]  00 86 3E 04 00 00 00 00
  can0  06214000   [8]  04 04 48 00 00 4B 0B 00
  can0  04394100   [8]  7F A8 0B 00 03 FF 00 00
  can0  04214001   [8]  00 81 90 5D 00 00 00 00
  can0  063D4000   [8]  69 4F 00 00 0A B7 00 00
  can0  04394000   [4]  00 00 00 C3
  can0  04294001   [8]  00 00 A8 00 00 00 04 00
  can0  04214006   [8]  00 00 00 00 00 00 00 00
  can0  03029000   [8]  00 00 00 00 00 00 02 00
  can0  06254000   [8]  00 FF FF 00 FF FF FF 00
  can0  0302911A   [4]  53 00 02 3F
  can0  0C394003   [8]  C3 02 00 00 08 01 60 00
  can0  03029100   [8]  00 00 00 00 00 00 00 00
  can0  04214001   [8]  00 81 90 5D 00 00 00 00
  can0  04294001   [8]  00 00 A8 00 00 00 04 00
  can0  0421400B   [8]  00 86 3E 04 00 00 00 00
  can0  04394100   [8]  7F 98 0C 00 04 00 80 00
  can0  04214001   [8]  00 81 90 5D 00 00 00 00
  can0  06314000   [8]  40 00 00 00 00 00 00 00
  can0  04394000   [4]  00 00 00 C3
  can0  06314018   [8]  C0 00 00 00 00 00 00 00
  can0  04294001   [8]  00 00 A8 00 00 00 04 00
  can0  04214006   [8]  00 00 00 00 00 00 00 00
  can0  0E094000   [6]  00 1E 05 40 1C 4B
  can0  03029000   [8]  00 00 00 00 00 00 02 00
  can0  0E094003   [2]  00 1E
  can0  0302911A   [4]  53 00 03 22
  can0  0621401A   [8]  00 05 01 00 92 00 00 00
  can0  03029100   [8]  00 00 00 00 00 00 00 00
  can0  06314003   [8]  00 10 70 00 00 00 00 00
  can0  0E09400A   [2]  00 1E
  can0  0E094018   [2]  00 1E
  can0  0621400A   [2]  00 00
  can0  0E09401A   [2]  00 1E
  can0  0E094020   [2]  00 0A
  can0  04214001   [8]  00 81 90 5D 00 00 00 00
  can0  02214000   [6]  00 00 00 00 00 00
  can0  06314020   [4]  10 00 00 B0
  can0  04294001   [8]  00 00 A8 00 00 00 04 00
  can0  0421400B   [8]  00 86 3E 04 00 00 00 00
  can0  04394100   [8]  7F 98 0C 00 04 00 00 00
  can0  04214001   [8]  00 81 90 5D 00 00 00 00
  can0  04394000   [4]  00 00 00 C3
  can0  04294001   [8]  00 00 A8 00 00 00 04 00
  can0  04214006   [8]  00 00 00 00 00 00 00 00
  can0  06214000   [8]  04 04 48 00 00 4B 0B 00
  can0  03029000   [8]  00 00 00 00 00 00 02 00
  can0  0302911A   [4]  53 00 04 71
  can0  03029100   [8]  00 00 00 00 00 00 00 00
  can0  06284000   [8]  00 00 00 00 00 00 00 00
  can0  04214001   [8]  00 81 90 5D 00 00 00 00
  can0  04294001   [8]  00 00 A8 00 00 00 04 00
  can0  0421400B   [8]  00 86 3E 04 00 00 00 00
  can0  06254000   [8]  00 FF FF 00 FF FF FF 00
  can0  04394100   [8]  7F B8 0A 00 03 FF 80 00
  can0  02294000   [8]  00 00 00 00 00 00 00 00
  can0  04214001   [8]  00 81 90 5D 00 00 00 00
  can0  04394000   [4]  00 00 00 C3
  can0  04294001   [8]  00 00 A8 00 00 00 04 00
  can0  04214006   [8]  00 00 00 00 00 00 00 00
  can0  03029000   [8]  00 00 00 00 00 00 02 00
  can0  0302911A   [4]  53 00 05 6C
  can0  03029100   [8]  00 00 00 00 00 00 00 00
  can0  06314000   [8]  40 00 00 00 00 00 00 00
  can0  04214001   [8]  00 81 90 5D 00 00 00 00
  can0  04294001   [8]  00 00 A8 00 00 00 04 00
  can0  0421400B   [8]  00 86 3E 04 00 00 00 00
  can0  0621401A   [8]  00 05 01 00 92 00 00 00
  can0  062BBF00   [8]  00 00 00 00 00 00 00 00
  can0  04394100   [8]  7F A8 0D 00 03 FF 80 00
  can0  04214001   [8]  00 81 90 5D 00 00 00 00
  can0  02214000   [6]  00 00 00 00 00 00
  can0  04394000   [4]  00 00 00 C3
  can0  04294001   [8]  00 00 A8 00 00 00 04 00
  can0  04214006   [8]  00 00 00 00 00 00 00 00
  can0  03029000   [8]  00 00 00 00 00 00 02 00
  can0  0302911A   [4]  53 00 06 4B
  can0  0C214003   [6]  21 00 18 02 20 18
  can0  03029100   [8]  00 00 00 00 00 00 00 00
  can0  04214001   [8]  00 81 90 5D 00 00 00 00
  can0  06264000   [8]  18 1E CC 7F F0 C2 4D 00
  can0  04294001   [8]  00 00 A8 00 00 00 04 00
  can0  0421400B   [8]  00 86 3E 04 00 00 00 00
  can0  06214000   [8]  04 04 48 00 00 4B 0B 00
  can0  04394100   [8]  7F B8 0A 00 03 FF 80 00
  can0  04214001   [8]  00 81 90 5D 00 00 00 00
  can0  063D4000   [8]  69 4F 00 00 0A B7 00 00
  can0  04394000   [4]  00 00 00 C3
  can0  04294001   [8]  00 00 A8 00 00 00 04 00
  can0  04214006   [8]  00 00 00 00 00 00 00 00
  can0  03029000   [8]  00 00 00 00 00 00 02 00
  can0  0302911A   [4]  53 00 07 56
  can0  06254000   [8]  00 FF FF 00 FF FF FF 00
  can0  0C054003   [8]  04 70 04 87 89 9A 00 00
  can0  03029100   [8]  00 00 00 00 00 00 00 00
  can0  04214001   [8]  00 81 90 5D 00 00 00 00
  can0  04294001   [8]  00 00 A8 00 00 00 04 00
  can0  0421400B   [8]  00 86 3E 04 00 00 00 00
  can0  04394100   [8]  7F 98 0B 00 03 FF 80 00
  can0  06314000   [8]  40 00 00 00 00 00 00 00
  can0  04214001   [8]  00 81 90 5D 00 00 00 00
  can0  04394000   [4]  00 00 00 C3
  can0  04294001   [8]  00 00 A8 00 00 00 04 00
  can0  04214006   [8]  00 00 00 00 00 00 00 00
  can0  03029000   [8]  00 00 00 00 00 00 02 00
  can0  0302911A   [4]  53 00 08 ED
  can0  0621401A   [8]  00 05 01 00 92 00 00 00
  can0  0621400A   [2]  00 00
  can0  03029100   [8]  00 00 00 00 00 00 00 00
  can0  06314003   [8]  00 10 70 00 00 00 00 00
  can0  04214001   [8]  00 81 90 5D 00 00 00 00
  can0  02214000   [6]  00 00 00 00 00 00
  can0  04294001   [8]  00 00 A8 00 00 00 04 00
  can0  0421400B   [8]  00 86 3E 04 00 00 00 00
  can0  04394100   [8]  7F B8 0B 00 03 FF 80 00
  can0  04214001   [8]  00 81 90 5D 00 00 00 00
  can0  04394000   [4]  00 00 00 C3
  can0  04294001   [8]  00 00 A8 00 00 00 04 00
  can0  04214006   [8]  00 00 00 00 00 00 00 00
  can0  06214000   [8]  04 04 48 00 00 4B 0B 00
  can0  03029000   [8]  00 00 00 00 00 00 02 00
  can0  0302911A   [4]  53 00 09 F0
  can0  0A3D4003   [8]  21 83 40 6B 10 07 08 C0
  can0  03029100   [8]  00 00 00 00 00 00 00 00
  can0  06284000   [8]  00 00 00 00 00 00 00 00
  can0  04214001   [8]  00 81 90 5D 00 00 00 00
  can0  04294001   [8]  00 00 A8 00 00 00 04 00
  can0  0421400B   [8]  00 86 3E 04 00 00 00 00
  can0  06254000   [8]  00 FF FF 00 FF FF FF 00
  can0  04394100   [8]  7F 88 0C 00 03 FF 00 00
  can0  04214001   [8]  00 81 90 5D 00 00 00 00
  can0  04394000   [4]  00 00 00 C3
  can0  04294001   [8]  00 00 A8 00 00 00 04 00
  can0  04214006   [8]  00 00 00 00 00 00 00 00
  can0  03029000   [8]  00 00 00 00 00 00 02 00
  can0  0302911A   [4]  53 00 0A D7
  can0  0A354003   [8]  21 83 40 6B 10 07 08 C0
  can0  03029100   [8]  00 00 00 00 00 00 00 00
  can0  06314000   [8]  40 00 00 00 00 00 00 00
  can0  04214001   [8]  00 81 90 5D 00 00 00 00
  can0  04294001   [8]  00 00 A8 00 00 00 04 00
  can0  0421400B   [8]  00 86 3E 04 00 00 00 00
  can0  0621401A   [8]  00 05 01 00 92 00 00 00
  can0  062BBF00   [8]  00 00 00 00 00 00 00 00
  can0  04394100   [8]  7F 88 0C 00 03 FF 80 00
  can0  04214001   [8]  00 81 90 5D 00 00 00 00
  can0  02214000   [6]  00 00 00 00 00 00
  can0  04394000   [4]  00 00 00 C3
  can0  04294001   [8]  00 00 A8 00 00 00 04 00
  can0  04214006   [8]  00 00 00 00 00 00 00 00
  can0  03029000   [8]  00 00 00 00 00 00 02 00
  can0  0302911A   [4]  53 00 0B CA
  can0  0A194003   [8]  9A C5 40 00 00 00 00 00
  can0  03029100   [8]  00 00 00 00 00 00 00 00
  can0  0C3D4000   [2]  00 87
  can0  04214001   [8]  00 81 90 5D 00 00 00 00
  can0  06264000   [8]  18 1E CC 80 00 C2 4D 00
  can0  04294001   [8]  00 00 A8 00 00 00 04 00
  can0  0421400B   [8]  00 86 3E 04 00 00 00 00
  can0  06214000   [8]  04 04 48 00 00 4B 0B 00
  can0  04394100   [8]  7F 98 0A 00 04 00 00 00
  can0  04214001   [8]  00 81 90 5D 00 00 00 00
  can0  063D4000   [8]  69 4F 00 00 0A B7 00 00
  can0  04394000   [4]  00 00 00 C3
  can0  04294001   [8]  00 00 A8 00 00 00 04 00
  can0  04214006   [8]  00 00 00 00 00 00 00 00
  can0  03029000   [8]  00 00 00 00 00 00 02 00
  can0  0302911A   [4]  53 00 0C 99
  can0  06254000   [8]  00 FF FF 00 FF FF FF 00
  can0  0C394003   [8]  C3 02 00 00 08 01 60 00
  can0  03029100   [8]  00 00 00 00 00 00 00 00
  can0  04214001   [8]  00 81 90 5D 00 00 00 00
  can0  04294001   [8]  00 00 A8 00 00 00 04 00
  can0  0421400B   [8]  00 86 3E 04 00 00 00 00
  can0  04394100   [8]  7F 98 0C 00 04 00 00 00
  can0  06314000   [8]  40 00 00 00 00 00 00 00
  can0  04214001   [8]  00 81 90 5D 00 00 00 00
  can0  04394000   [4]  00 00 00 C3
  can0  06314018   [8]  C0 00 00 00 00 00 00 00
  can0  04294001   [8]  00 00 A8 00 00 00 04 00
  can0  04214006   [8]  00 00 00 00 00 00 00 00
  can0  0E094000   [6]  00 1E 05 40 1C 4B
  can0  03029000   [8]  00 00 00 00 00 00 02 00
  can0  0302911A   [4]  53 00 0D 84
  can0  0621401A   [8]  00 05 01 00 92 00 00 00
  can0  0E094003   [2]  00 1E
  can0  03029100   [8]  00 00 00 00 00 00 00 00
  can0  06314003   [8]  00 10 70 00 00 00 00 00
  can0  0E09400A   [2]  00 1E
  can0  0E094018   [2]  00 1E
  can0  0621400A   [2]  00 00
  can0  0E09401A   [2]  00 1E
  can0  0E094020   [2]  00 0A
  can0  04214001   [8]  00 81 90 5D 00 00 00 00
  can0  02214000   [6]  00 00 00 00 00 00
  can0  06314020   [4]  18 00 00 B0
  can0  04294001   [8]  00 00 A8 00 00 00 04 00
  can0  0421400B   [8]  00 86 3E 04 00 00 00 00
  can0  04394100   [8]  7F B8 0D 00 04 00 00 00
  can0  04214001   [8]  00 81 90 5D 00 00 00 00
  can0  04394000   [4]  00 00 00 C3
  can0  04294001   [8]  00 00 A8 00 00 00 04 00
  can0  04214006   [8]  00 00 00 00 00 00 00 00
  can0  06214000   [8]  04 04 48 00 00 4B 0B 00
  can0  03029000   [8]  00 00 00 00 00 00 02 00
  can0  0302911A   [4]  53 00 0E A3
  can0  03029100   [8]  00 00 00 00 00 00 00 00
  can0  06284000   [8]  00 00 00 00 00 00 00 00
  can0  04214001   [8]  00 81 90 5D 00 00 00 00
  can0  04294001   [8]  00 00 A8 00 00 00 04 00
  can0  0421400B   [8]  00 86 3E 04 00 00 00 00
  can0  06254000   [8]  00 FF FF 00 FF FF FF 00
  can0  04394100   [8]  7F B8 0B 00 04 00 00 00
  can0  02294000   [8]  00 00 00 00 00 00 00 00
  can0  04214001   [8]  00 81 90 5D 00 00 00 00
  can0  04394000   [4]  00 00 00 C3
  can0  04294001   [8]  00 00 A8 00 00 00 04 00
  can0  04214006   [8]  00 00 00 00 00 00 00 00
  can0  03029000   [8]  00 00 00 00 00 00 02 00
  can0  0302911A   [4]  53 00 0F BE
  can0  03029100   [8]  00 00 00 00 00 00 00 00
  can0  06314000   [8]  40 00 00 00 00 00 00 00
  can0  04214001   [8]  00 81 90 5D 00 00 00 00
  can0  04294001   [8]  00 00 A8 00 00 00 04 00
  can0  0421400B   [8]  00 86 3E 04 00 00 00 00
  can0  0621401A   [8]  00 05 01 00 92 00 00 00
  can0  062BBF00   [8]  00 00 00 00 00 00 00 00
  can0  04394100   [8]  7F C8 0A 00 04 00 00 00
  can0  04214001   [8]  00 81 90 5D 00 00 00 00
  can0  02214000   [6]  00 00 00 00 00 00
  can0  04394000   [4]  00 00 00 C3
  can0  04294001   [8]  00 00 A8 00 00 00 04 00
  can0  04214006   [8]  00 00 00 00 00 00 00 00
  can0  03029000   [8]  00 00 00 00 00 00 02 00
  can0  0302911A   [4]  53 00 00 05
  can0  0C214003   [6]  21 00 18 02 20 18
  can0  03029100   [8]  00 00 00 00 00 00 00 00
  can0  06264000   [8]  18 1E CC 80 00 C2 4D 00
  can0  04214001   [8]  00 81 90 5D 00 00 00 00
  can0  04294001   [8]  00 00 A8 00 00 00 04 00
  can0  0421400B   [8]  00 86 3E 04 00 00 00 00
  can0  06214000   [8]  04 04 48 00 00 4B 0B 00
  can0  04394100   [8]  7F 98 0E 00 04 00 00 00
  can0  063D4000   [8]  69 4F 00 00 0A B7 00 00
  can0  04214001   [8]  00 81 90 5D 00 00 00 00
  can0  04394000   [4]  00 00 00 C3
  can0  04294001   [8]  00 00 A8 00 00 00 04 00
  can0  04214006   [8]  00 00 00 00 00 00 00 00
  can0  03029000   [8]  00 00 00 00 00 00 02 00
  can0  0302911A   [4]  53 00 01 18
  can0  06254000   [8]  00 FF FF 00 FF FF FF 00
  can0  0C054003   [8]  04 70 04 87 89 9A 00 00
  can0  03029100   [8]  00 00 00 00 00 00 00 00
  can0  04214001   [8]  00 81 90 5D 00 00 00 00
  can0  04294001   [8]  00 00 A8 00 00 00 04 00
  can0  0421400B   [8]  00 86 3E 04 00 00 00 00
  can0  04394100   [8]  7F 98 0A 00 04 00 00 00
  can0  06314000   [8]  40 00 00 00 00 00 00 00
  can0  04214001   [8]  00 81 90 5D 00 00 00 00
  can0  04394000   [4]  00 00 00 C3
  can0  04294001   [8]  00 00 A8 00 00 00 04 00
  can0  04214006   [8]  00 00 00 00 00 00 00 00
  can0  03029000   [8]  00 00 00 00 00 00 02 00
  can0  0302911A   [4]  53 00 02 3F
  can0  0621401A   [8]  00 05 01 00 92 00 00 00
  can0  0621400A   [2]  00 00
  can0  03029100   [8]  00 00 00 00 00 00 00 00
  can0  06314003   [8]  00 10 70 00 00 00 00 00
  can0  04214001   [8]  00 81 90 5D 00 00 00 00
  can0  02214000   [6]  00 00 00 00 00 00
  can0  04294001   [8]  00 00 A8 00 00 00 04 00
  can0  0421400B   [8]  00 86 3E 04 00 00 00 00
  can0  04394100   [8]  7F 98 0B 00 03 FF 00 00
  can0  04214001   [8]  00 81 90 5D 00 00 00 00
  can0  04394000   [4]  00 00 00 C3
  can0  04294001   [8]  00 00 A8 00 00 00 04 00
  can0  04214006   [8]  00 00 00 00 00 00 00 00
  can0  06214000   [8]  04 04 48 00 00 4B 0B 00
  can0  03029000   [8]  00 00 00 00 00 00 02 00
  can0  0302911A   [4]  53 00 03 22
  can0  0A3D4003   [8]  21 83 40 6B 10 07 08 C0
  can0  03029100   [8]  00 00 00 00 00 00 00 00
  can0  06284000   [8]  00 00 00 00 00 00 00 00
  can0  04214001   [8]  00 81 90 5D 00 00 00 00
  can0  04294001   [8]  00 00 A8 00 00 00 04 00
  can0  0421400B   [8]  00 86 3E 04 00 00 00 00
  can0  06254000   [8]  00 FF FF 00 FF FF FF 00
  can0  04394100   [8]  7F B8 0C 00 04 00 00 00
  can0  04214001   [8]  00 81 90 5D 00 00 00 00
  can0  04394000   [4]  00 00 00 C3
  can0  04294001   [8]  00 00 A8 00 00 00 04 00
  can0  04214006   [8]  00 00 00 00 00 00 00 00
  can0  03029000   [8]  00 00 00 00 00 00 02 00
  can0  0302911A   [4]  53 00 04 71
  can0  0A354003   [8]  21 83 40 6B 10 07 08 C0
  can0  03029100   [8]  00 00 00 00 00 00 00 00
  can0  06314000   [8]  40 00 00 00 00 00 00 00
  can0  04214001   [8]  00 81 90 5D 00 00 00 00
  can0  04294001   [8]  00 00 A8 00 00 00 04 00
  can0  0421400B   [8]  00 86 3E 04 00 00 00 00
  can0  0621401A   [8]  00 05 01 00 92 00 00 00
  can0  062BBF00   [8]  00 00 00 00 00 00 00 00
  can0  04394100   [8]  7F 88 0C 00 04 00 00 00
  can0  04214001   [8]  00 81 90 5D 00 00 00 00
  can0  02214000   [6]  00 00 00 00 00 00
  can0  04394000   [4]  00 00 00 C3
  can0  04294001   [8]  00 00 A8 00 00 00 04 00
  can0  04214006   [8]  00 00 00 00 00 00 00 00
  can0  03029000   [8]  00 00 00 00 00 00 02 00
  can0  0302911A   [4]  53 00 05 6C
  can0  0A194003   [8]  9A C5 40 00 00 00 00 00
  can0  03029100   [8]  00 00 00 00 00 00 00 00
  can0  0C3D4000   [2]  00 87
  can0  06264000   [8]  18 1E CC 80 00 C2 4D 00
  can0  04214001   [8]  00 81 90 5D 00 00 00 00
  can0  04294001   [8]  00 00 A8 00 00 00 04 00
  can0  0421400B   [8]  00 86 3E 04 00 00 00 00
  can0  06214000   [8]  04 04 48 00 00 4B 0B 00
  can0  04394100   [8]  7F 98 0D 00 04 00 00 00
  can0  063D4000   [8]  69 4F 00 00 0A B7 00 00
  can0  04214001   [8]  00 81 90 5D 00 00 00 00
  can0  04394000   [4]  00 00 00 C3
  can0  04294001   [8]  00 00 A8 00 00 00 04 00
  can0  04214006   [8]  00 00 00 00 00 00 00 00
  can0  03029000   [8]  00 00 00 00 00 00 02 00
  can0  0302911A   [4]  53 00 06 4B
  can0  06254000   [8]  00 FF FF 00 FF FF FF 00
  can0  0C394003   [8]  C3 02 00 00 08 01 60 00
  can0  03029100   [8]  00 00 00 00 00 00 00 00
  can0  04214001   [8]  00 81 90 5D 00 00 00 00
  can0  04294001   [8]  00 00 A8 00 00 00 04 00
  can0  0421400B   [8]  00 86 3E 04 00 00 00 00
  can0  04394100   [8]  7F 98 0B 00 04 00 00 00
  can0  06314000   [8]  40 00 00 00 00 00 00 00
  can0  04214001   [8]  00 81 90 5D 00 00 00 00
  can0  04394000   [4]  00 00 00 C3
  can0  06314018   [8]  C0 00 00 00 00 00 00 00
  can0  04294001   [8]  00 00 A8 00 00 00 04 00
  can0  04214006   [8]  00 00 00 00 00 00 00 00
  can0  0E094000   [6]  00 1E 05 40 1C 4B
  can0  03029000   [8]  00 00 00 00 00 00 02 00
  can0  0302911A   [4]  53 00 07 56
  can0  0621401A   [8]  00 05 01 00 92 00 00 00
  can0  0E094003   [2]  00 1E
  can0  06314003   [8]  00 10 70 00 00 00 00 00
  can0  03029100   [8]  00 00 00 00 00 00 00 00
  can0  0E09400A   [2]  00 1E
  can0  0E094018   [2]  00 1E
  can0  0621400A   [2]  00 00
  can0  0E09401A   [2]  00 1E
  can0  0E094020   [2]  00 0A
  can0  04214001   [8]  00 81 90 5D 00 00 00 00
  can0  02214000   [6]  00 00 00 00 00 00
  can0  06314020   [4]  00 00 00 A4
  can0  04294001   [8]  00 00 A8 00 00 00 04 00
  can0  0421400B   [8]  00 86 3E 04 00 00 00 00
  can0  04394100   [8]  7F 88 0A 00 04 00 00 00
  can0  04214001   [8]  00 81 90 5D 00 00 00 00
  can0  04394000   [4]  00 00 00 C3
  can0  04294001   [8]  00 00 A8 00 00 00 04 00
  can0  04214006   [8]  00 00 00 00 00 00 00 00
  can0  06214000   [8]  04 04 48 00 00 4B 0B 00
  can0  03029000   [8]  00 00 00 00 00 00 02 00
  can0  0302911A   [4]  53 00 08 ED
  can0  03029100   [8]  00 00 00 00 00 00 00 00
  can0  06284000   [8]  00 00 00 00 00 00 00 00
  can0  04214001   [8]  00 81 90 5D 00 00 00 00
  can0  04294001   [8]  00 00 A8 00 00 00 04 00
  can0  0421400B   [8]  00 86 3E 04 00 00 00 00
  can0  06254000   [8]  00 FF FF 00 FF FF FF 00
  can0  04394100   [8]  7F 98 0C 00 04 00 00 00
  can0  02294000   [8]  00 00 00 00 00 00 00 00
  can0  04214001   [8]  00 81 90 5D 00 00 00 00
  can0  04394000   [4]  00 00 00 C3
  can0  04294001   [8]  00 00 A8 00 00 00 04 00
  can0  04214006   [8]  00 00 00 00 00 00 00 00
  can0  03029000   [8]  00 00 00 00 00 00 02 00
  can0  0302911A   [4]  53 00 09 F0
  can0  03029100   [8]  00 00 00 00 00 00 00 00
  can0  06314000   [8]  40 00 00 00 00 00 00 00
  can0  04214001   [8]  00 81 90 5D 00 00 00 00
  can0  04294001   [8]  00 00 A8 00 00 00 04 00
  can0  0421400B   [8]  00 86 3E 04 00 00 00 00
  can0  0621401A   [8]  00 05 01 00 92 00 00 00
  can0  062BBF00   [8]  00 00 00 00 00 00 00 00
  can0  04394100   [8]  7F B8 0E 00 04 00 00 00
  can0  04214001   [8]  00 81 90 5D 00 00 00 00
  can0  02214000   [6]  00 00 00 00 00 00
  can0  04394000   [4]  00 00 00 C3
  can0  04294001   [8]  00 00 A8 00 00 00 04 00
  can0  04214006   [8]  00 00 00 00 00 00 00 00
  can0  03029000   [8]  00 00 00 00 00 00 02 00
  can0  0302911A   [4]  53 00 0A D7
  can0  0C214003   [6]  21 00 18 02 20 18
  can0  03029100   [8]  00 00 00 00 00 00 00 00
  can0  06264000   [8]  18 1E CC 80 00 C2 4D 00
  can0  04214001   [8]  00 81 90 5D 00 00 00 00
  can0  04294001   [8]  00 00 A8 00 00 00 04 00
  can0  0421400B   [8]  00 86 3E 04 00 00 00 00
  can0  06214000   [8]  04 04 48 00 00 4B 0B 00
  can0  04394100   [8]  7F 98 0A 00 04 00 00 00
  can0  063D4000   [8]  69 4F 00 00 0A B7 00 00
  can0  04214001   [8]  00 81 90 5D 00 00 00 00
  can0  04394000   [4]  00 00 00 C3
  can0  04294001   [8]  00 00 A8 00 00 00 04 00
  can0  04214006   [8]  00 00 00 00 00 00 00 00
  can0  03029000   [8]  00 00 00 00 00 00 02 00
  can0  0302911A   [4]  53 00 0B CA
  can0  06254000   [8]  00 FF FF 00 FF FF FF 00
  can0  0C054003   [8]  04 70 04 87 89 9A 00 00
  can0  03029100   [8]  00 00 00 00 00 00 00 00
  can0  04214001   [8]  00 81 90 5D 00 00 00 00
  can0  04294001   [8]  00 00 A8 00 00 00 04 00
  can0  0421400B   [8]  00 86 3E 04 00 00 00 00
  can0  04394100   [8]  7F 98 0C 00 04 00 00 00
  can0  06314000   [8]  40 00 00 00 00 00 00 00
  can0  04214001   [8]  00 81 90 5D 00 00 00 00
  can0  04394000   [4]  00 00 00 C3
  can0  04294001   [8]  00 00 A8 00 00 00 04 00
  can0  04214006   [8]  00 00 00 00 00 00 00 00
  can0  03029000   [8]  00 00 00 00 00 00 02 00
  can0  0302911A   [4]  53 00 0C 99
  can0  0621401A   [8]  00 05 01 00 92 00 00 00
  can0  06314003   [8]  00 10 70 00 00 00 00 00
  can0  03029100   [8]  00 00 00 00 00 00 00 00
  can0  0621400A   [2]  00 00
  can0  04214001   [8]  00 81 90 5D 00 00 00 00
  can0  02214000   [6]  00 00 00 00 00 00
  can0  04294001   [8]  00 00 A8 00 00 00 04 00
  can0  0421400B   [8]  00 86 3E 04 00 00 00 00
  can0  04394100   [8]  7F 88 0E 00 04 00 00 00
  can0  04214001   [8]  00 81 90 5D 00 00 00 00
  can0  04394000   [4]  00 00 00 C3
  can0  04294001   [8]  00 00 A8 00 00 00 04 00
  can0  04214006   [8]  00 00 00 00 00 00 00 00
  can0  06214000   [8]  04 04 48 00 00 4B 0B 00
  can0  03029000   [8]  00 00 00 00 00 00 02 00
  can0  0302911A   [4]  53 00 0D 84
  can0  0A3D4003   [8]  21 83 40 6B 10 07 08 C0
  can0  03029100   [8]  00 00 00 00 00 00 00 00
  can0  06284000   [8]  00 00 00 00 00 00 00 00
  can0  04214001   [8]  00 81 90 5D 00 00 00 00
  can0  04294001   [8]  00 00 A8 00 00 00 04 00
  can0  0421400B   [8]  00 86 3E 04 00 00 00 00
  can0  06254000   [8]  00 FF FF 00 FF FF FF 00
  can0  04394100   [8]  7F B8 0A 00 04 00 00 00
  can0  04214001   [8]  00 81 90 5D 00 00 00 00
  can0  04394000   [4]  00 00 00 C3
  can0  04294001   [8]  00 00 A8 00 00 00 04 00
  can0  04214006   [8]  00 00 00 00 00 00 00 00
  can0  03029000   [8]  00 00 00 00 00 00 02 00
  can0  0302911A   [4]  53 00 0E A3
  can0  0A354003   [8]  21 83 40 6B 10 07 08 C0
  can0  03029100   [8]  00 00 00 00 00 00 00 00
  can0  06314000   [8]  40 00 00 00 00 00 00 00
  can0  04214001   [8]  00 81 90 5D 00 00 00 00
  can0  04294001   [8]  00 00 A8 00 00 00 04 00
  can0  0421400B   [8]  00 86 3E 04 00 00 00 00
  can0  0621401A   [8]  00 05 01 00 92 00 00 00
  can0  062BBF00   [8]  00 00 00 00 00 00 00 00
  can0  04394100   [8]  7F B8 0C 00 04 00 00 00
  can0  04214001   [8]  00 81 90 5D 00 00 00 00
  can0  02214000   [6]  00 00 00 00 00 00
  can0  04394000   [4]  00 00 00 C3
  can0  04294001   [8]  00 00 A8 00 00 00 04 00
  can0  04214006   [8]  00 00 00 00 00 00 00 00
  can0  03029000   [8]  00 00 00 00 00 00 02 00
  can0  0302911A   [4]  53 00 0F BE
  can0  0A194003   [8]  9A C5 40 00 00 00 00 00
  can0  03029100   [8]  00 00 00 00 00 00 00 00
  can0  0C3D4000   [2]  00 87
  can0  06264000   [8]  18 1E CC 80 00 C2 4D 00
  can0  04214001   [8]  00 81 90 5D 00 00 00 00
  can0  04294001   [8]  00 00 A8 00 00 00 04 00
  can0  0421400B   [8]  00 86 3E 04 00 00 00 00
  can0  06214000   [8]  04 04 48 00 00 4B 0B 00
  can0  04394100   [8]  7F 78 0A 00 03 FF 80 00
  can0  063D4000   [8]  69 4F 00 00 0A B7 00 00
  can0  04214001   [8]  00 81 90 5D 00 00 00 00
  can0  04394000   [4]  00 00 00 C3
  can0  04294001   [8]  00 00 A8 00 00 00 04 00
  can0  04214006   [8]  00 00 00 00 00 00 00 00
  can0  03029000   [8]  00 00 00 00 00 00 02 00
  can0  0302911A   [4]  53 00 00 05
  can0  06254000   [8]  00 FF FF 00 FF FF FF 00
  can0  0C394003   [8]  C3 02 00 00 08 01 60 00
  can0  03029100   [8]  00 00 00 00 00 00 00 00
  can0  04214001   [8]  00 81 90 5D 00 00 00 00
  can0  04294001   [8]  00 00 A8 00 00 00 00 00
  can0  0421400B   [8]  00 86 3E 04 00 00 00 00
  can0  04394100   [8]  7F B8 0C 00 04 00 80 00
  can0  06314000   [8]  40 00 00 00 00 00 00 00
  can0  04214001   [8]  00 81 90 5D 00 00 00 00
  can0  04394000   [4]  00 00 00 C3
  can0  06314018   [8]  C0 00 00 00 00 00 00 00
  can0  04294001   [8]  00 00 A8 00 00 00 00 00
  can0  04214006   [8]  00 00 00 00 00 00 00 00
  can0  0E094000   [6]  00 1E 05 40 1C 4B
  can0  03029000   [8]  00 00 00 00 00 00 02 00
  can0  0302911A   [4]  53 00 01 18
  can0  0621401A   [8]  00 05 01 00 92 00 00 00
  can0  0E094003   [2]  00 1E
  can0  06314003   [8]  00 10 70 00 00 00 00 00
  can0  03029100   [8]  00 00 00 00 00 00 00 00
  can0  0E09400A   [2]  00 1E
  can0  0E094018   [2]  00 1E
  can0  0621400A   [2]  00 00
  can0  0E09401A   [2]  00 1E
  can0  0E094020   [2]  00 0A
  can0  04214001   [8]  00 81 90 5D 00 00 00 00
  can0  02214000   [6]  00 00 00 00 00 00
  can0  06314020   [4]  08 00 00 A8
  can0  04294001   [8]  00 00 A8 00 00 00 00 00
  can0  0421400B   [8]  00 86 3E 04 00 00 00 00
  can0  04394100   [8]  7F 88 0A 00 04 00 80 00
  can0  04214001   [8]  00 81 90 5D 00 00 00 00
  can0  04394000   [4]  00 00 00 C3
  can0  04294001   [8]  00 00 A8 00 00 00 00 00
  can0  04214006   [8]  00 00 00 00 00 00 00 00
  can0  06214000   [8]  04 04 48 00 00 4B 0B 00
  can0  0302911A   [4]  53 00 02 3F
  can0  03029000   [8]  00 00 00 00 00 00 02 00
  can0  03029100   [8]  00 00 00 00 00 00 00 00
  can0  06284000   [8]  00 00 00 00 00 00 00 00
  can0  04214001   [8]  00 81 90 5D 00 00 00 00
  can0  04294001   [8]  00 00 A8 00 00 00 00 00
  can0  0421400B   [8]  00 86 3E 04 00 00 00 00
  can0  06254000   [8]  00 FF FF 00 FF FF FF 00
  can0  04394100   [8]  7F 88 0D 00 04 00 80 00
  can0  02294000   [8]  00 00 00 00 00 00 00 00
  can0  04214001   [8]  00 81 90 5D 00 00 00 00
  can0  04394000   [4]  00 00 00 C3
  can0  04294001   [8]  00 00 A8 00 00 00 00 00
  can0  04214006   [8]  00 00 00 00 00 00 00 00
  can0  0302911A   [4]  53 00 03 22
  can0  03029000   [8]  00 00 00 00 00 00 02 00
  can0  03029100   [8]  00 00 00 00 00 00 00 00
  can0  06314000   [8]  40 00 00 00 00 00 00 00
  can0  04214001   [8]  00 81 90 5D 00 00 00 00
  can0  04294001   [8]  00 00 A8 00 00 00 00 00
  can0  0421400B   [8]  00 86 3E 04 00 00 00 00
  can0  0621401A   [8]  00 05 01 00 92 00 00 00
  can0  062BBF00   [8]  00 00 00 00 00 00 00 00
  can0  04394100   [8]  7F 98 0D 00 03 FF 00 00
  can0  04214001   [8]  00 81 90 5D 00 00 00 00
  can0  02214000   [6]  00 00 00 00 00 00
  can0  04394000   [4]  00 00 00 C3
  can0  04294001   [8]  00 00 A8 00 00 00 00 00
  can0  04214006   [8]  00 00 00 00 00 00 00 00
  can0  0302911A   [4]  53 00 04 71
  can0  03029000   [8]  00 00 00 00 00 00 02 00
  can0  0C214003   [6]  21 00 18 02 20 18
  can0  03029100   [8]  00 00 00 00 00 00 00 00
  can0  06264000   [8]  18 1E CC 80 20 C2 4D 00
  can0  04214001   [8]  00 81 90 5D 00 00 00 00
  can0  04294001   [8]  00 00 A8 00 00 00 00 00
  can0  0421400B   [8]  00 86 3E 04 00 00 00 00
  can0  06214000   [8]  04 04 48 00 00 4B 0B 00
  can0  04394100   [8]  7F B8 0A 00 04 00 00 00
  can0  063D4000   [8]  69 4F 00 00 0A B7 00 00
  can0  04214001   [8]  00 81 90 5D 00 00 00 00
  can0  04394000   [4]  00 00 00 C3
  can0  04294001   [8]  00 00 A8 00 00 00 00 00
  can0  04214006   [8]  00 00 00 00 00 00 00 00
  can0  0302911A   [4]  53 00 05 6C
  can0  03029000   [8]  00 00 00 00 00 00 02 00
  can0  06254000   [8]  00 FF FF 00 FF FF FF 00
  can0  0C054003   [8]  04 70 04 87 89 9A 00 00
  can0  03029100   [8]  00 00 00 00 00 00 00 00
  can0  04214001   [8]  00 81 90 5D 00 00 00 00
  can0  04294001   [8]  00 00 A8 00 00 00 00 00
  can0  0421400B   [8]  00 86 3E 04 00 00 00 00
  can0  04394100   [8]  7F 98 0A 00 04 00 80 00
  can0  06314000   [8]  40 00 00 00 00 00 00 00
  can0  04214001   [8]  00 81 90 5D 00 00 00 00
  can0  04394000   [4]  00 00 00 C3
  can0  04294001   [8]  00 00 A8 00 00 00 00 00
  can0  04214006   [8]  00 00 00 00 00 00 00 00
  can0  0302911A   [4]  53 00 06 4B
  can0  03029000   [8]  00 00 00 00 00 00 02 00
  can0  0621401A   [8]  00 05 01 00 92 00 00 00
  can0  06314003   [8]  00 10 70 00 00 00 00 00
  can0  03029100   [8]  00 00 00 00 00 00 00 00
  can0  0621400A   [2]  00 00
  can0  04214001   [8]  00 81 90 5D 00 00 00 00
  can0  02214000   [6]  00 00 00 00 00 00
  can0  04294001   [8]  00 00 A8 00 00 00 00 00
  can0  0421400B   [8]  00 86 3E 04 00 00 00 00
  can0  04394100   [8]  7F A8 0D 00 03 FF 00 00
  can0  04214001   [8]  00 81 90 5D 00 00 00 00
  can0  04394000   [4]  00 00 00 C3
  can0  04294001   [8]  00 00 A8 00 00 00 00 00
  can0  04214006   [8]  00 00 00 00 00 00 00 00
  can0  06214000   [8]  04 04 48 00 00 4B 0B 00
  can0  0302911A   [4]  53 00 07 56
  can0  03029000   [8]  00 00 00 00 00 00 02 00
  can0  0A3D4003   [8]  21 83 40 6B 10 07 08 C0
  can0  03029100   [8]  00 00 00 00 00 00 00 00
  can0  06284000   [8]  00 00 00 00 00 00 00 00
  can0  04214001   [8]  00 81 90 5D 00 00 00 00
  can0  04294001   [8]  00 00 A8 00 00 00 00 00
  can0  0421400B   [8]  00 86 3E 04 00 00 00 00
  can0  06254000   [8]  00 FF FF 00 FF FF FF 00
  can0  04394100   [8]  7F 88 0C 00 04 00 80 00
  can0  04214001   [8]  00 81 90 5D 00 00 00 00
  can0  04394000   [4]  00 00 00 C3
  can0  04294001   [8]  00 00 A8 00 00 00 00 00
  can0  04214006   [8]  00 00 00 00 00 00 00 00
  can0  0302911A   [4]  53 00 08 ED
  can0  03029000   [8]  00 00 00 00 00 00 02 00
  can0  0A354003   [8]  21 83 40 6B 10 07 08 C0
  can0  03029100   [8]  00 00 00 00 00 00 00 00
  can0  06314000   [8]  40 00 00 00 00 00 00 00
  can0  04214001   [8]  00 81 90 5D 00 00 00 00
  can0  04294001   [8]  00 00 A8 00 00 00 00 00
  can0  0421400B   [8]  00 86 3E 04 00 00 00 00
  can0  0621401A   [8]  00 05 01 00 92 00 00 00
  can0  062BBF00   [8]  00 00 00 00 00 00 00 00
  can0  04394100   [8]  7F 98 0B 00 04 00 80 00
  can0  04214001   [8]  00 81 90 5D 00 00 00 00
  can0  02214000   [6]  00 00 00 00 00 00
  can0  04394000   [4]  00 00 00 C3
  can0  04294001   [8]  00 00 A8 00 00 00 00 00
  can0  04214006   [8]  00 00 00 00 00 00 00 00
  can0  0302911A   [4]  53 00 09 F0
  can0  03029000   [8]  00 00 00 00 00 00 02 00
  can0  0A194003   [8]  9A C5 40 00 00 00 00 00
  can0  03029100   [8]  00 00 00 00 00 00 00 00
  can0  0C3D4000   [2]  00 87
  can0  06264000   [8]  18 1E CC 80 10 C2 4D 00
  can0  04214001   [8]  00 81 90 5D 00 00 00 00
  can0  04294001   [8]  00 00 A8 00 00 00 00 00
  can0  0421400B   [8]  00 86 3E 04 00 00 00 00
  can0  06214000   [8]  04 04 48 00 00 4B 0B 00
  can0  04394100   [8]  7F 88 0B 00 04 00 80 00
  can0  063D4000   [8]  69 4F 00 00 0A B7 00 00
  can0  04214001   [8]  00 81 90 5D 00 00 00 00
  can0  04394000   [4]  00 00 00 C3
  can0  04294001   [8]  00 00 A8 00 00 00 00 00
  can0  04214006   [8]  00 00 00 00 00 00 00 00
  can0  0302911A   [4]  53 00 0A D7
  can0  03029000   [8]  00 00 00 00 00 00 02 00
  can0  06254000   [8]  00 FF FF 00 FF FF FF 00
  can0  0C394003   [8]  C3 02 00 00 08 01 60 00
  can0  03029100   [8]  00 00 00 00 00 00 00 00
  can0  04214001   [8]  00 81 90 5D 00 00 00 00
  can0  04294001   [8]  00 00 A8 00 00 00 00 00
  can0  0421400B   [8]  00 86 3E 04 00 00 00 00
  can0  04394100   [8]  7F 98 0B 00 04 00 00 00
  can0  06314000   [8]  40 00 00 00 00 00 00 00
  can0  04214001   [8]  00 81 90 5D 00 00 00 00
  can0  04394000   [4]  00 00 00 C3
  can0  06314018   [8]  C0 00 00 00 00 00 00 00
  can0  04294001   [8]  00 00 A8 00 00 00 00 00
  can0  04214006   [8]  00 00 00 00 00 00 00 00
  can0  0E094000   [6]  00 1E 05 40 1C 4B
  can0  03029000   [8]  00 00 00 00 00 00 02 00
  can0  0302911A   [4]  53 00 0B CA
  can0  0621401A   [8]  00 05 01 00 92 00 00 00
  can0  0E094003   [2]  00 1E
  can0  06314003   [8]  00 10 70 00 00 00 00 00
  can0  03029100   [8]  00 00 00 00 00 00 00 00
  can0  0E09400A   [2]  00 1E
  can0  0E094018   [2]  00 1E
  can0  0621400A   [2]  00 00
  can0  0E09401A   [2]  00 1E
  can0  0E094020   [2]  00 0A
  can0  04214001   [8]  00 81 90 5D 00 00 00 00
  can0  02214000   [6]  00 00 00 00 00 00
  can0  06314020   [4]  10 00 00 B0
  can0  04294001   [8]  00 00 A8 00 00 00 00 00
  can0  0421400B   [8]  00 86 3E 04 00 00 00 00
  can0  04394100   [8]  7F 98 0A 00 03 FF 80 00
  can0  04214001   [8]  00 81 90 5D 00 00 00 00
  can0  04394000   [4]  00 00 00 C3
  can0  04294001   [8]  00 00 A8 00 00 00 00 00
  can0  04214006   [8]  00 00 00 00 00 00 00 00
  can0  06214000   [8]  04 04 48 00 00 4B 0B 00
  can0  0302911A   [4]  53 00 0C 99
  can0  03029000   [8]  00 00 00 00 00 00 04 00
  can0  03029100   [8]  00 00 00 00 00 00 00 00
  can0  06284000   [8]  00 00 00 00 00 00 00 00
  can0  04214001   [8]  00 81 90 5D 00 00 00 00
  can0  04294001   [8]  00 00 A8 00 00 00 00 00
  can0  0421400B   [8]  00 86 3E 04 00 00 00 00
  can0  06254000   [8]  00 FF FF 00 FF FF FF 00
  can0  04394100   [8]  7F 88 0A 00 04 00 00 00
  can0  02294000   [8]  00 00 00 00 00 00 00 00
  can0  04214001   [8]  00 81 90 5D 00 00 00 00
  can0  04394000   [4]  00 00 00 C3
  can0  04294001   [8]  00 00 A8 00 00 00 00 00
  can0  04214006   [8]  00 00 00 00 00 00 00 00
  can0  0302911A   [4]  53 00 0D 84
  can0  03029000   [8]  00 00 00 00 00 00 02 00
  can0  03029100   [8]  00 00 00 00 00 00 00 00
  can0  06314000   [8]  40 00 00 00 00 00 00 00
  can0  04214001   [8]  00 81 90 5D 00 00 00 00
  can0  04294001   [8]  00 00 A8 00 00 00 00 00
  can0  0421400B   [8]  00 86 3E 04 00 00 00 00
  can0  0621401A   [8]  00 05 01 00 92 00 00 00
  can0  062BBF00   [8]  00 00 00 00 00 00 00 00
  can0  04394100   [8]  7F A8 0D 00 03 FF 80 00
  can0  04214001   [8]  00 81 90 5D 00 00 00 00
  can0  02214000   [6]  00 00 00 00 00 00
  can0  04394000   [4]  00 00 00 C3
  can0  04294001   [8]  00 00 A8 00 00 00 00 00
  can0  04214006   [8]  00 00 00 00 00 00 00 00
  can0  0302911A   [4]  53 00 0E A3
  can0  03029000   [8]  00 00 00 00 00 00 02 00
  can0  0C214003   [6]  21 00 18 02 20 18
  can0  03029100   [8]  00 00 00 00 00 00 00 00
  can0  06264000   [8]  18 1E CC 80 10 C2 4D 00
  can0  04214001   [8]  00 81 90 5D 00 00 00 00
  can0  04294001   [8]  00 00 A8 00 00 00 00 00
  can0  0421400B   [8]  00 86 3E 04 00 00 00 00
  can0  06214000   [8]  04 04 48 00 00 4B 0B 00
  can0  04394100   [8]  7F A8 0B 00 04 00 00 00
  can0  063D4000   [8]  69 4F 00 00 0A B7 00 00
  can0  04214001   [8]  00 81 90 5D 00 00 00 00
  can0  04394000   [4]  00 00 00 C3
  can0  04294001   [8]  00 00 A8 00 00 00 00 00
  can0  04214006   [8]  00 00 00 00 00 00 00 00
  can0  0302911A   [4]  53 00 0F BE
  can0  03029000   [8]  00 00 00 00 00 00 02 00
  can0  06254000   [8]  00 FF FF 00 FF FF FF 00
  can0  0C054003   [8]  04 70 04 87 89 9A 00 00
  can0  03029100   [8]  00 00 00 00 00 00 00 00
  can0  04214001   [8]  00 81 90 5D 00 00 00 00
  can0  04294001   [8]  00 00 A8 00 00 00 00 00
  can0  0421400B   [8]  00 86 3E 04 00 00 00 00
  can0  04394100   [8]  7F 88 0B 00 04 00 80 00
  can0  06314000   [8]  40 00 00 00 00 00 00 00
  can0  04214001   [8]  00 81 90 5D 00 00 00 00
  can0  04394000   [4]  00 00 00 C3
  can0  04294001   [8]  00 00 A8 00 00 00 00 00
  can0  04214006   [8]  00 00 00 00 00 00 00 00
  can0  0302911A   [4]  53 00 00 05
  can0  0621401A   [8]  00 05 01 00 92 00 00 00
  can0  03029000   [8]  00 00 00 00 00 00 02 00
  can0  06314003   [8]  00 10 70 00 00 00 00 00
  can0  03029100   [8]  00 00 00 00 00 00 00 00
  can0  0621400A   [2]  00 00
  can0  04214001   [8]  00 81 90 5D 00 00 00 00
  can0  02214000   [6]  00 00 00 00 00 00
  can0  04294001   [8]  00 00 A8 00 00 00 00 00
  can0  0421400B   [8]  00 86 3E 04 00 00 00 00
  can0  04394100   [8]  7F A8 0A 00 04 00 00 00
  can0  04214001   [8]  00 81 90 5D 00 00 00 00
  can0  04394000   [4]  00 00 00 C3
  can0  04294001   [8]  00 00 A8 00 00 00 00 00
  can0  04214006   [8]  00 00 00 00 00 00 00 00
  can0  06214000   [8]  04 04 48 00 00 4B 0B 00
  can0  0302911A   [4]  53 00 01 18
  can0  03029000   [8]  00 00 00 00 00 00 02 00
  can0  0A3D4003   [8]  21 83 40 6B 10 07 08 C0
  can0  03029100   [8]  00 00 00 00 00 00 00 00
  can0  06284000   [8]  00 00 00 00 00 00 00 00
  can0  04214001   [8]  00 81 90 5D 00 00 00 00
  can0  04294001   [8]  00 00 A8 00 00 00 00 00
  can0  0421400B   [8]  00 86 3E 04 00 00 00 00
  can0  06254000   [8]  00 FF FF 00 FF FF FF 00
  can0  04394100   [8]  7F A8 0D 00 04 00 00 00
  can0  04214001   [8]  00 81 90 5D 00 00 00 00
  can0  04394000   [4]  00 00 00 C3
  can0  04294001   [8]  00 00 A8 00 00 00 00 00
  can0  06214000   [8]  00 04 18 00 00 4B 0B 00
  can0  06284000   [8]  00 00 00 00 00 00 00 00
  can0  0302911A   [4]  53 00 02 3F
  can0  03029000   [8]  00 00 00 00 00 00 02 00
  can0  0A354003   [8]  21 83 40 6B 10 07 08 C0
  can0  03029100   [8]  00 00 00 00 00 00 00 00
  can0  06314000   [8]  00 00 00 00 00 00 00 00
  can0  04214001   [8]  00 81 90 5D 00 00 00 00
  can0  04294001   [8]  00 00 A8 00 00 00 00 00
  can0  0421400B   [8]  00 86 3E 04 00 00 00 00
  can0  0621401A   [8]  00 05 01 00 92 00 00 00
  can0  062BBF00   [8]  00 00 00 00 00 00 00 00
  can0  04394100   [8]  7F A8 0D 00 04 00 00 00
  can0  04214001   [8]  00 81 90 5D 00 00 00 00
  can0  02214000   [6]  00 00 00 00 00 00
  can0  04394000   [4]  00 00 00 C3
  can0  04294001   [8]  00 00 A8 00 00 00 00 00
  can0  0302911A   [4]  53 00 03 22
  can0  03029000   [8]  00 00 00 00 00 00 02 00
  can0  0A194003   [8]  9A C5 40 00 00 00 00 00
  can0  03029100   [8]  00 00 00 00 00 00 00 00
  can0  0A354003   [8]  21 A3 50 6B 10 07 08 E0
  can0  06264000   [8]  18 1E CC 80 00 C2 4D 00
  can0  04214001   [8]  00 81 90 5D 00 00 00 00
  can0  0A3D4003   [8]  21 A3 50 6B 10 07 08 E0
  can0  04294001   [8]  00 00 A8 00 00 00 00 00
  can0  0421400B   [8]  00 86 3E 04 00 00 00 00
  can0  06214000   [8]  00 04 18 00 00 00 0B 00
  can0  04394100   [8]  7F A8 0D 00 04 00 00 00
  can0  063D4000   [8]  69 4F 00 00 0A B7 00 00
  can0  04214001   [8]  00 81 90 5D 00 00 00 00
  can0  04394000   [4]  00 00 00 C3
  can0  04294001   [8]  00 00 A8 00 00 00 00 00
  can0  0302911A   [4]  53 00 04 71
  can0  03029000   [8]  00 00 00 00 00 00 02 00
  can0  06254000   [8]  00 FF FF 00 FF FF FF 00
  can0  0C394003   [8]  C3 02 00 00 08 01 60 00
  can0  03029100   [8]  00 00 00 00 00 00 00 00
  can0  04214001   [8]  00 81 90 5D 00 00 00 00
  can0  04294001   [8]  00 00 A8 00 00 00 00 00
  can0  0421400B   [8]  00 86 3E 04 00 00 00 00
  can0  04394100   [8]  7F A8 0D 00 04 00 00 00
  can0  06314000   [8]  00 00 00 00 00 00 00 00
  can0  04214001   [8]  00 81 90 5D 00 00 00 00
  can0  04394000   [4]  00 00 00 C3
  can0  04294001   [8]  00 00 A8 00 00 00 00 00
  can0  06214000   [8]  00 04 1C 00 00 00 0B 00
  can0  0302911A   [4]  53 00 05 6C
  can0  0621401A   [8]  00 05 01 00 92 00 00 00
  can0  0E094000   [6]  00 1E 05 40 0C 0B
  can0  03029000   [8]  00 00 00 00 00 00 02 00
  can0  0E094003   [2]  00 1A
  can0  0E09401A   [2]  00 1E
  can0  03029100   [8]  00 00 00 00 00 00 00 00
  can0  06314003   [8]  00 10 70 00 00 00 00 00
  can0  0E09400A   [2]  00 1A
  can0  0E094020   [2]  00 0A
  can0  0621400A   [2]  00 00
  can0  04214001   [8]  00 81 90 5D 00 00 00 00
  can0  02214000   [6]  00 00 00 00 00 00
  can0  06314020   [4]  18 00 00 B0
  can0  04294001   [8]  00 00 A8 00 00 00 00 00
  can0  0421400B   [8]  00 86 3E 04 00 00 00 00
  can0  04394100   [8]  7F A8 0D 00 04 00 00 00
  can0  04214001   [8]  00 81 90 5D 00 00 00 00
  can0  04394000   [4]  00 00 00 C3
  can0  04294001   [8]  00 00 A8 00 00 00 00 00
  can0  06214000   [8]  00 04 1C 00 00 00 0B 00
  can0  0302911A   [4]  53 00 06 4B
  can0  03029000   [8]  00 00 00 00 00 00 02 00
  can0  03029100   [8]  00 00 00 00 00 00 00 00
  can0  06284000   [8]  00 00 00 00 00 00 00 00
  can0  04214001   [8]  00 81 90 5D 00 00 00 00
  can0  04294001   [8]  00 00 A8 00 00 00 00 00
  can0  0421400B   [8]  00 86 3E 04 00 00 00 00
  can0  06254000   [8]  00 FF FF 00 FF FF FF 00
  can0  04394100   [8]  7F A8 0D 00 04 00 00 00
  can0  02294000   [8]  00 00 00 00 00 00 00 00
  can0  04214001   [8]  00 81 90 5D 00 00 00 00
  can0  04394000   [4]  00 00 00 C3
  can0  04294001   [8]  00 00 A8 00 00 00 00 00
  can0  0302911A   [4]  53 00 07 56
  can0  03029000   [8]  00 00 00 00 00 00 02 00
  can0  03029100   [8]  00 00 00 00 00 00 00 00
  can0  06314000   [8]  00 00 00 00 00 00 00 00
  can0  04214001   [8]  00 81 90 5D 00 00 00 00
  can0  04294001   [8]  00 00 A8 00 00 00 00 00
  can0  0421400B   [8]  00 86 3E 04 00 00 00 00
  can0  0621401A   [8]  00 05 01 00 92 00 00 00
  can0  062BBF00   [8]  00 00 00 00 00 00 00 00
  can0  04394100   [8]  7F A8 0D 00 04 00 00 00
  can0  04214001   [8]  00 81 90 5D 00 00 00 00
  can0  02214000   [6]  00 00 00 00 00 00
  can0  04394000   [4]  00 00 00 C3
  can0  04294001   [8]  00 00 A8 00 00 00 00 00
  can0  0302911A   [4]  53 00 08 ED
  can0  03029000   [8]  00 00 00 00 00 00 02 00
  can0  0C214003   [6]  21 00 18 02 20 18
  can0  03029100   [8]  00 00 00 00 00 00 00 00
  can0  06264000   [8]  18 1E CC 80 00 C2 4D 00
  can0  04214001   [8]  00 81 90 5D 00 00 00 00
  can0  04294001   [8]  00 00 A8 00 00 00 00 00
  can0  0421400B   [8]  00 86 3E 04 00 00 00 00
  can0  06214000   [8]  00 04 1C 00 00 00 0B 00
  can0  04394100   [8]  7F A8 0D 00 04 00 00 00
  can0  063D4000   [8]  69 4F 00 00 0A B7 00 00
  can0  04214001   [8]  00 81 90 5D 00 00 00 00
  can0  04394000   [4]  00 00 00 C3
  can0  04294001   [8]  00 00 A8 00 00 00 00 00
  can0  0302911A   [4]  53 00 09 F0
  can0  03029000   [8]  00 00 00 00 00 00 02 00
  can0  06254000   [8]  00 FF FF 00 FF FF FF 00
  can0  0C054003   [8]  04 70 04 87 89 9A 00 00
  can0  03029100   [8]  00 00 00 00 00 00 00 00
  can0  04214001   [8]  00 81 90 5D 00 00 00 00
  can0  04294001   [8]  00 00 A8 00 00 00 00 00
  can0  0421400B   [8]  00 86 3E 04 00 00 00 00
  can0  04394100   [8]  7F A8 0D 00 04 00 00 00
  can0  06314000   [8]  00 00 00 00 00 00 00 00
  can0  04214001   [8]  00 81 90 5D 00 00 00 00
  can0  04394000   [4]  00 00 00 C3
  can0  04294001   [8]  00 00 A8 00 00 00 00 00
  can0  0302911A   [4]  53 00 0A D7
  can0  0621401A   [8]  00 05 01 00 92 00 00 00
  can0  03029000   [8]  00 00 00 00 00 00 02 00
  can0  06314003   [8]  00 10 70 00 00 00 00 00
  can0  03029100   [8]  00 00 00 00 00 00 00 00
  can0  0621400A   [2]  00 00
  can0  04214001   [8]  00 81 90 5D 00 00 00 00
  can0  02214000   [6]  00 00 00 00 00 00
  can0  04294001   [8]  00 00 A8 00 00 00 00 00
  can0  0421400B   [8]  00 86 3E 04 00 00 00 00
  can0  04394100   [8]  7F A8 0D 00 04 00 00 00
  can0  04214001   [8]  00 81 90 5D 00 00 00 00
  can0  04394000   [4]  00 00 00 C3
  can0  04294001   [8]  00 00 A8 00 00 00 00 00
  can0  06214000   [8]  00 04 1C 00 00 00 0B 00
  can0  0302911A   [4]  53 00 0B CA
  can0  03029000   [8]  00 00 00 00 00 00 02 00
  can0  0A3D4003   [8]  21 A3 50 6B 10 07 08 E0
  can0  03029100   [8]  00 00 00 00 00 00 00 00
  can0  06284000   [8]  00 00 00 00 00 00 00 00
  can0  04214001   [8]  00 81 90 5D 00 00 00 00
  can0  04294001   [8]  00 00 A8 00 00 00 00 00
  can0  0421400B   [8]  00 86 3E 04 00 00 00 00
  can0  06214000   [8]  00 04 18 00 00 00 0B 00
  can0  06254000   [8]  00 FF FF 00 FF FF FF 00
  can0  04394100   [8]  7F A8 0D 00 04 00 00 00
  can0  04214001   [8]  00 81 90 5D 00 00 00 00
  can0  04394000   [4]  00 00 00 C3
  can0  04294001   [8]  00 00 A8 00 00 00 00 00
  can0  0302911A   [4]  53 00 0C 99
  can0  03029000   [8]  00 00 00 00 00 00 02 00
  can0  0A354003   [8]  21 A3 50 6B 10 07 08 E0
  can0  03029100   [8]  00 00 00 00 00 00 00 00
  can0  06314000   [8]  00 00 00 00 00 00 00 00
  can0  04214001   [8]  00 81 90 5D 00 00 00 00
  can0  04294001   [8]  00 00 A8 00 00 00 00 00
  can0  0421400B   [8]  00 86 3E 04 00 00 00 00
  can0  0621401A   [8]  00 05 01 00 92 00 00 00
  can0  062BBF00   [8]  00 00 00 00 00 00 00 00
  can0  04394100   [8]  7F A8 0D 00 04 00 00 00
  can0  04214001   [8]  00 81 90 5D 00 00 00 00
  can0  02214000   [6]  00 00 00 00 00 00
  can0  04394000   [4]  00 00 00 C3
  can0  04294001   [8]  00 00 A8 00 00 00 00 00
